
 /----------------------------------------------------------------------------\
 |  yosys -- Yosys Open SYnthesis Suite                                       |
 |  Copyright (C) 2012 - 2025  Claire Xenia Wolf <claire@yosyshq.com>         |
 |  Distributed under an ISC-like license, type "license" to see terms        |
 \----------------------------------------------------------------------------/
 Yosys 0.52 (git sha1 fee39a3284c90249e1d9684cf6944ffbbcbb8f90)

-- Executing script file `../model/design.ys' --

1. Executing Verilog-2005 frontend: addr_decoder.sv
Parsing formal SystemVerilog input from `addr_decoder.sv' to AST representation.
Storing AST representation for module `$abstract\addr_decoder'.
Successfully finished Verilog frontend.

2. Executing Verilog-2005 frontend: qos_arbiter.sv
Parsing formal SystemVerilog input from `qos_arbiter.sv' to AST representation.
Storing AST representation for module `$abstract\qos_arbiter'.
Successfully finished Verilog frontend.

3. Executing Verilog-2005 frontend: axi4lite_arbiter_top.sv
Parsing formal SystemVerilog input from `axi4lite_arbiter_top.sv' to AST representation.
Storing AST representation for module `$abstract\axi4lite_arbiter_top'.
Successfully finished Verilog frontend.

4. Executing Verilog-2005 frontend: arbiter_formal.sv
Parsing formal SystemVerilog input from `arbiter_formal.sv' to AST representation.
Storing AST representation for module `$abstract\arbiter_formal'.
Successfully finished Verilog frontend.

5. Executing PREP pass.

5.1. Executing HIERARCHY pass (managing design hierarchy).

5.2. Executing AST frontend in derive mode using pre-parsed AST for module `\arbiter_formal'.
Generating RTLIL representation for module `\arbiter_formal'.

5.2.1. Analyzing design hierarchy..
Top module:  \arbiter_formal
Parameter \NUM_MASTERS = 4
Parameter \NUM_SLAVES = 2
Parameter \ADDR_WIDTH = 32
Parameter \DATA_WIDTH = 32
Parameter \M0_WEIGHT = 1
Parameter \M1_WEIGHT = 3
Parameter \M2_WEIGHT = 2
Parameter \M3_WEIGHT = 1
Parameter \AGE_THRESHOLD = 64
Parameter \SLAVE0_BASE = 0
Parameter \SLAVE0_SIZE = 65536
Parameter \SLAVE1_BASE = 65536
Parameter \SLAVE1_SIZE = 65536

5.2.2. Executing AST frontend in derive mode using pre-parsed AST for module `\axi4lite_arbiter_top'.
Parameter \NUM_MASTERS = 4
Parameter \NUM_SLAVES = 2
Parameter \ADDR_WIDTH = 32
Parameter \DATA_WIDTH = 32
Parameter \M0_WEIGHT = 1
Parameter \M1_WEIGHT = 3
Parameter \M2_WEIGHT = 2
Parameter \M3_WEIGHT = 1
Parameter \AGE_THRESHOLD = 64
Parameter \SLAVE0_BASE = 0
Parameter \SLAVE0_SIZE = 65536
Parameter \SLAVE1_BASE = 65536
Parameter \SLAVE1_SIZE = 65536
Generating RTLIL representation for module `$paramod$20bf198c79fefe63fb33258281db4746901c4585\axi4lite_arbiter_top'.
Warning: Replacing memory \r_rresp_demux with list of registers. See axi4lite_arbiter_top.sv:642
Warning: Replacing memory \r_rdata_demux with list of registers. See axi4lite_arbiter_top.sv:641
Warning: Replacing memory \w_bresp_demux with list of registers. See axi4lite_arbiter_top.sv:376

5.2.3. Analyzing design hierarchy..
Top module:  \arbiter_formal
Used module:     $paramod$20bf198c79fefe63fb33258281db4746901c4585\axi4lite_arbiter_top
Parameter \ADDR_WIDTH = 32
Parameter \SLAVE0_BASE = 0
Parameter \SLAVE0_SIZE = 65536
Parameter \SLAVE1_BASE = 65536
Parameter \SLAVE1_SIZE = 65536

5.2.4. Executing AST frontend in derive mode using pre-parsed AST for module `\addr_decoder'.
Parameter \ADDR_WIDTH = 32
Parameter \SLAVE0_BASE = 0
Parameter \SLAVE0_SIZE = 65536
Parameter \SLAVE1_BASE = 65536
Parameter \SLAVE1_SIZE = 65536
Generating RTLIL representation for module `$paramod$59f66e305bd3b47082af7a1e20206251db0b33b5\addr_decoder'.
Parameter \NUM_MASTERS = 4
Parameter \M0_WEIGHT = 1
Parameter \M1_WEIGHT = 3
Parameter \M2_WEIGHT = 2
Parameter \M3_WEIGHT = 1
Parameter \AGE_THRESHOLD = 64

5.2.5. Executing AST frontend in derive mode using pre-parsed AST for module `\qos_arbiter'.
Parameter \NUM_MASTERS = 4
Parameter \M0_WEIGHT = 1
Parameter \M1_WEIGHT = 3
Parameter \M2_WEIGHT = 2
Parameter \M3_WEIGHT = 1
Parameter \AGE_THRESHOLD = 64
Generating RTLIL representation for module `$paramod$508cca98229eff1b70362476b43647777eac3ce1\qos_arbiter'.
Parameter \ADDR_WIDTH = 32
Parameter \SLAVE0_BASE = 0
Parameter \SLAVE0_SIZE = 65536
Parameter \SLAVE1_BASE = 65536
Parameter \SLAVE1_SIZE = 65536
Found cached RTLIL representation for module `$paramod$59f66e305bd3b47082af7a1e20206251db0b33b5\addr_decoder'.
Parameter \NUM_MASTERS = 4
Parameter \M0_WEIGHT = 1
Parameter \M1_WEIGHT = 3
Parameter \M2_WEIGHT = 2
Parameter \M3_WEIGHT = 1
Parameter \AGE_THRESHOLD = 64
Found cached RTLIL representation for module `$paramod$508cca98229eff1b70362476b43647777eac3ce1\qos_arbiter'.

5.2.6. Analyzing design hierarchy..
Top module:  \arbiter_formal
Used module:     $paramod$20bf198c79fefe63fb33258281db4746901c4585\axi4lite_arbiter_top
Used module:         $paramod$59f66e305bd3b47082af7a1e20206251db0b33b5\addr_decoder
Used module:         $paramod$508cca98229eff1b70362476b43647777eac3ce1\qos_arbiter

5.2.7. Analyzing design hierarchy..
Top module:  \arbiter_formal
Used module:     $paramod$20bf198c79fefe63fb33258281db4746901c4585\axi4lite_arbiter_top
Used module:         $paramod$59f66e305bd3b47082af7a1e20206251db0b33b5\addr_decoder
Used module:         $paramod$508cca98229eff1b70362476b43647777eac3ce1\qos_arbiter
Removing unused module `$abstract\arbiter_formal'.
Removing unused module `$abstract\axi4lite_arbiter_top'.
Removing unused module `$abstract\qos_arbiter'.
Removing unused module `$abstract\addr_decoder'.
Removed 4 unused modules.
Module arbiter_formal directly or indirectly contains formal properties -> setting "keep" attribute.

5.3. Executing PROC pass (convert processes to netlists).

5.3.1. Executing PROC_CLEAN pass (remove empty switches from decision trees).
Cleaned up 0 empty switches.

5.3.2. Executing PROC_RMDEAD pass (remove dead branches from decision trees).
Marked 2 switch rules as full_case in process $proc$qos_arbiter.sv:0$887 in module $paramod$508cca98229eff1b70362476b43647777eac3ce1\qos_arbiter.
Marked 4 switch rules as full_case in process $proc$qos_arbiter.sv:179$869 in module $paramod$508cca98229eff1b70362476b43647777eac3ce1\qos_arbiter.
Marked 24 switch rules as full_case in process $proc$qos_arbiter.sv:0$847 in module $paramod$508cca98229eff1b70362476b43647777eac3ce1\qos_arbiter.
Marked 6 switch rules as full_case in process $proc$qos_arbiter.sv:0$838 in module $paramod$508cca98229eff1b70362476b43647777eac3ce1\qos_arbiter.
Marked 4 switch rules as full_case in process $proc$addr_decoder.sv:0$825 in module $paramod$59f66e305bd3b47082af7a1e20206251db0b33b5\addr_decoder.
Removed 6 dead cases from process $proc$axi4lite_arbiter_top.sv:0$708 in module $paramod$20bf198c79fefe63fb33258281db4746901c4585\axi4lite_arbiter_top.
Marked 13 switch rules as full_case in process $proc$axi4lite_arbiter_top.sv:0$708 in module $paramod$20bf198c79fefe63fb33258281db4746901c4585\axi4lite_arbiter_top.
Removed 3 dead cases from process $proc$axi4lite_arbiter_top.sv:578$679 in module $paramod$20bf198c79fefe63fb33258281db4746901c4585\axi4lite_arbiter_top.
Marked 8 switch rules as full_case in process $proc$axi4lite_arbiter_top.sv:578$679 in module $paramod$20bf198c79fefe63fb33258281db4746901c4585\axi4lite_arbiter_top.
Removed 1 dead cases from process $proc$axi4lite_arbiter_top.sv:0$678 in module $paramod$20bf198c79fefe63fb33258281db4746901c4585\axi4lite_arbiter_top.
Marked 1 switch rules as full_case in process $proc$axi4lite_arbiter_top.sv:0$678 in module $paramod$20bf198c79fefe63fb33258281db4746901c4585\axi4lite_arbiter_top.
Marked 2 switch rules as full_case in process $proc$axi4lite_arbiter_top.sv:0$677 in module $paramod$20bf198c79fefe63fb33258281db4746901c4585\axi4lite_arbiter_top.
Removed 1 dead cases from process $proc$axi4lite_arbiter_top.sv:0$676 in module $paramod$20bf198c79fefe63fb33258281db4746901c4585\axi4lite_arbiter_top.
Marked 1 switch rules as full_case in process $proc$axi4lite_arbiter_top.sv:0$676 in module $paramod$20bf198c79fefe63fb33258281db4746901c4585\axi4lite_arbiter_top.
Removed 4 dead cases from process $proc$axi4lite_arbiter_top.sv:0$551 in module $paramod$20bf198c79fefe63fb33258281db4746901c4585\axi4lite_arbiter_top.
Marked 13 switch rules as full_case in process $proc$axi4lite_arbiter_top.sv:0$551 in module $paramod$20bf198c79fefe63fb33258281db4746901c4585\axi4lite_arbiter_top.
Removed 4 dead cases from process $proc$axi4lite_arbiter_top.sv:302$521 in module $paramod$20bf198c79fefe63fb33258281db4746901c4585\axi4lite_arbiter_top.
Marked 9 switch rules as full_case in process $proc$axi4lite_arbiter_top.sv:302$521 in module $paramod$20bf198c79fefe63fb33258281db4746901c4585\axi4lite_arbiter_top.
Removed 1 dead cases from process $proc$axi4lite_arbiter_top.sv:0$520 in module $paramod$20bf198c79fefe63fb33258281db4746901c4585\axi4lite_arbiter_top.
Marked 1 switch rules as full_case in process $proc$axi4lite_arbiter_top.sv:0$520 in module $paramod$20bf198c79fefe63fb33258281db4746901c4585\axi4lite_arbiter_top.
Marked 2 switch rules as full_case in process $proc$axi4lite_arbiter_top.sv:0$519 in module $paramod$20bf198c79fefe63fb33258281db4746901c4585\axi4lite_arbiter_top.
Removed 1 dead cases from process $proc$axi4lite_arbiter_top.sv:0$518 in module $paramod$20bf198c79fefe63fb33258281db4746901c4585\axi4lite_arbiter_top.
Marked 1 switch rules as full_case in process $proc$axi4lite_arbiter_top.sv:0$518 in module $paramod$20bf198c79fefe63fb33258281db4746901c4585\axi4lite_arbiter_top.
Marked 1 switch rules as full_case in process $proc$arbiter_formal.sv:143$81 in module arbiter_formal.
Marked 1 switch rules as full_case in process $proc$arbiter_formal.sv:134$77 in module arbiter_formal.
Removed a total of 21 dead cases.

5.3.3. Executing PROC_PRUNE pass (remove redundant assignments in processes).
Removed 2 redundant assignments.
Promoted 220 assignments to connections.

5.3.4. Executing PROC_INIT pass (extract init attributes).
Found init rule in `\arbiter_formal.$proc$arbiter_formal.sv:133$487'.
  Set init value: \f_reset_count = 3'000

5.3.5. Executing PROC_ARST pass (detect async resets in processes).
Found async reset \aresetn in `$paramod$508cca98229eff1b70362476b43647777eac3ce1\qos_arbiter.$proc$qos_arbiter.sv:179$869'.
Found async reset \aresetn in `$paramod$20bf198c79fefe63fb33258281db4746901c4585\axi4lite_arbiter_top.$proc$axi4lite_arbiter_top.sv:578$679'.
Found async reset \aresetn in `$paramod$20bf198c79fefe63fb33258281db4746901c4585\axi4lite_arbiter_top.$proc$axi4lite_arbiter_top.sv:302$521'.

5.3.6. Executing PROC_ROM pass (convert switches to ROMs).
Converted 0 switches.
<suppressed ~140 debug messages>

5.3.7. Executing PROC_MUX pass (convert decision trees to multiplexers).
Creating decoders for process `$paramod$508cca98229eff1b70362476b43647777eac3ce1\qos_arbiter.$proc$qos_arbiter.sv:0$887'.
     1/9: $2\grant_valid[0:0]
     2/9: $2\master_id[1:0]
     3/9: $2\grant[3:0]
     4/9: $2$bitselwrite$pos$qos_arbiter.sv:253$835[1:0]$901
     5/9: $1\grant_valid[0:0]
     6/9: $1\master_id[1:0]
     7/9: $1\grant[3:0]
     8/9: $1$bitselwrite$pos$qos_arbiter.sv:249$834[1:0]$892
     9/9: $1$bitselwrite$pos$qos_arbiter.sv:253$835[1:0]$893
Creating decoders for process `$paramod$508cca98229eff1b70362476b43647777eac3ce1\qos_arbiter.$proc$qos_arbiter.sv:179$869'.
     1/8: $0\age_counter[31:0]
     2/8: $0\rr_ptr[1:0]
     3/8: $0\quota_3[31:0]
     4/8: $0\quota_2[31:0]
     5/8: $0\quota_1[31:0]
     6/8: $0\is_active[0:0]
     7/8: $0\current_master[1:0]
     8/8: $0\starvation_flag[0:0]
Creating decoders for process `$paramod$508cca98229eff1b70362476b43647777eac3ce1\qos_arbiter.$proc$qos_arbiter.sv:0$847'.
     1/48: $24\cand_valid[0:0]
     2/48: $24\next_cand[1:0]
     3/48: $23\cand_valid[0:0]
     4/48: $23\next_cand[1:0]
     5/48: $22\cand_valid[0:0]
     6/48: $22\next_cand[1:0]
     7/48: $21\cand_valid[0:0]
     8/48: $21\next_cand[1:0]
     9/48: $20\cand_valid[0:0]
    10/48: $20\next_cand[1:0]
    11/48: $19\cand_valid[0:0]
    12/48: $19\next_cand[1:0]
    13/48: $18\cand_valid[0:0]
    14/48: $18\next_cand[1:0]
    15/48: $17\cand_valid[0:0]
    16/48: $17\next_cand[1:0]
    17/48: $16\cand_valid[0:0]
    18/48: $16\next_cand[1:0]
    19/48: $15\cand_valid[0:0]
    20/48: $15\next_cand[1:0]
    21/48: $14\cand_valid[0:0]
    22/48: $14\next_cand[1:0]
    23/48: $13\cand_valid[0:0]
    24/48: $13\next_cand[1:0]
    25/48: $12\cand_valid[0:0]
    26/48: $12\next_cand[1:0]
    27/48: $11\cand_valid[0:0]
    28/48: $11\next_cand[1:0]
    29/48: $10\cand_valid[0:0]
    30/48: $10\next_cand[1:0]
    31/48: $9\cand_valid[0:0]
    32/48: $9\next_cand[1:0]
    33/48: $8\cand_valid[0:0]
    34/48: $8\next_cand[1:0]
    35/48: $7\cand_valid[0:0]
    36/48: $7\next_cand[1:0]
    37/48: $6\cand_valid[0:0]
    38/48: $6\next_cand[1:0]
    39/48: $5\cand_valid[0:0]
    40/48: $5\next_cand[1:0]
    41/48: $4\cand_valid[0:0]
    42/48: $4\next_cand[1:0]
    43/48: $3\cand_valid[0:0]
    44/48: $3\next_cand[1:0]
    45/48: $2\cand_valid[0:0]
    46/48: $2\next_cand[1:0]
    47/48: $1\cand_valid[0:0]
    48/48: $1\next_cand[1:0]
Creating decoders for process `$paramod$508cca98229eff1b70362476b43647777eac3ce1\qos_arbiter.$proc$qos_arbiter.sv:0$838'.
     1/16: $3\eff_q3[31:0]
     2/16: $5\eff_rr_ptr[1:0]
     3/16: $3\eff_q2[31:0]
     4/16: $4\eff_rr_ptr[1:0]
     5/16: $3\eff_q1[31:0]
     6/16: $3\eff_rr_ptr[1:0]
     7/16: $2\eff_rr_ptr[1:0]
     8/16: $2\eff_q1[31:0]
     9/16: $2\eff_q3[31:0]
    10/16: $2\eff_q2[31:0]
    11/16: $2\eff_starvation[0:0]
    12/16: $1\eff_rr_ptr[1:0]
    13/16: $1\eff_q3[31:0]
    14/16: $1\eff_q2[31:0]
    15/16: $1\eff_q1[31:0]
    16/16: $1\eff_starvation[0:0]
Creating decoders for process `$paramod$59f66e305bd3b47082af7a1e20206251db0b33b5\addr_decoder.$proc$addr_decoder.sv:0$825'.
     1/8: $2\invalid_addr[0:0]
     2/8: $2\valid_addr[0:0]
     3/8: $2\slave_sel[1:0]
     4/8: $1\invalid_addr[0:0]
     5/8: $1\valid_addr[0:0]
     6/8: $1\slave_sel[1:0]
     7/8: $1\match_s1[0:0]
     8/8: $1\match_s0[0:0]
Creating decoders for process `$paramod$20bf198c79fefe63fb33258281db4746901c4585\axi4lite_arbiter_top.$proc$axi4lite_arbiter_top.sv:0$824'.
Creating decoders for process `$paramod$20bf198c79fefe63fb33258281db4746901c4585\axi4lite_arbiter_top.$proc$axi4lite_arbiter_top.sv:0$708'.
     1/132: $7\r_rresp_demux[0][1:0]
     2/132: $7\r_rresp_demux[3][1:0]
     3/132: $7\r_rresp_demux[2][1:0]
     4/132: $7\r_rresp_demux[1][1:0]
     5/132: $7\r_rdata_demux[0][31:0]
     6/132: $7\r_rdata_demux[3][31:0]
     7/132: $7\r_rdata_demux[2][31:0]
     8/132: $7\r_rdata_demux[1][31:0]
     9/132: $4\s1_rready_mux[0:0]
    10/132: $6\r_rresp_demux[3][1:0]
    11/132: $6\r_rresp_demux[2][1:0]
    12/132: $6\r_rresp_demux[1][1:0]
    13/132: $6\r_rresp_demux[0][1:0]
    14/132: $4$mem2reg_wr$\r_rresp_demux$axi4lite_arbiter_top.sv:682$517_ADDR[1:0]$815
    15/132: $4$mem2reg_wr$\r_rresp_demux$axi4lite_arbiter_top.sv:682$517_DATA[1:0]$816
    16/132: $6\r_rdata_demux[3][31:0]
    17/132: $6\r_rdata_demux[2][31:0]
    18/132: $6\r_rdata_demux[1][31:0]
    19/132: $6\r_rdata_demux[0][31:0]
    20/132: $4$mem2reg_wr$\r_rdata_demux$axi4lite_arbiter_top.sv:681$516_ADDR[1:0]$813
    21/132: $4$mem2reg_wr$\r_rdata_demux$axi4lite_arbiter_top.sv:681$516_DATA[31:0]$814
    22/132: $4\r_rvalid_demux[3:0]
    23/132: $4$bitselwrite$pos$axi4lite_arbiter_top.sv:680$502[1:0]$812
    24/132: $5\r_rresp_demux[0][1:0]
    25/132: $5\r_rresp_demux[3][1:0]
    26/132: $5\r_rresp_demux[2][1:0]
    27/132: $5\r_rresp_demux[1][1:0]
    28/132: $5\r_rdata_demux[0][31:0]
    29/132: $5\r_rdata_demux[3][31:0]
    30/132: $5\r_rdata_demux[2][31:0]
    31/132: $5\r_rdata_demux[1][31:0]
    32/132: $3\s0_rready_mux[0:0]
    33/132: $4\r_rresp_demux[3][1:0]
    34/132: $4\r_rresp_demux[2][1:0]
    35/132: $4\r_rresp_demux[1][1:0]
    36/132: $4\r_rresp_demux[0][1:0]
    37/132: $3$mem2reg_wr$\r_rresp_demux$axi4lite_arbiter_top.sv:677$515_ADDR[1:0]$799
    38/132: $3$mem2reg_wr$\r_rresp_demux$axi4lite_arbiter_top.sv:677$515_DATA[1:0]$800
    39/132: $4\r_rdata_demux[3][31:0]
    40/132: $4\r_rdata_demux[2][31:0]
    41/132: $4\r_rdata_demux[1][31:0]
    42/132: $4\r_rdata_demux[0][31:0]
    43/132: $3$mem2reg_wr$\r_rdata_demux$axi4lite_arbiter_top.sv:676$514_ADDR[1:0]$797
    44/132: $3$mem2reg_wr$\r_rdata_demux$axi4lite_arbiter_top.sv:676$514_DATA[31:0]$798
    45/132: $3\r_rvalid_demux[3:0]
    46/132: $3$bitselwrite$pos$axi4lite_arbiter_top.sv:675$501[1:0]$795
    47/132: $3$mem2reg_wr$\r_rresp_demux$axi4lite_arbiter_top.sv:682$517_DATA[1:0]$804
    48/132: $3$mem2reg_wr$\r_rresp_demux$axi4lite_arbiter_top.sv:682$517_ADDR[1:0]$803
    49/132: $3$mem2reg_wr$\r_rdata_demux$axi4lite_arbiter_top.sv:681$516_DATA[31:0]$802
    50/132: $3$mem2reg_wr$\r_rdata_demux$axi4lite_arbiter_top.sv:681$516_ADDR[1:0]$801
    51/132: $3$bitselwrite$pos$axi4lite_arbiter_top.sv:680$502[1:0]$796
    52/132: $3\s1_rready_mux[0:0]
    53/132: $3\r_rresp_demux[0][1:0]
    54/132: $3\r_rresp_demux[3][1:0]
    55/132: $3\r_rresp_demux[2][1:0]
    56/132: $3\r_rresp_demux[1][1:0]
    57/132: $3\r_rdata_demux[0][31:0]
    58/132: $3\r_rdata_demux[3][31:0]
    59/132: $3\r_rdata_demux[2][31:0]
    60/132: $3\r_rdata_demux[1][31:0]
    61/132: $2\r_rresp_demux[3][1:0]
    62/132: $2\r_rresp_demux[2][1:0]
    63/132: $2\r_rresp_demux[1][1:0]
    64/132: $2\r_rresp_demux[0][1:0]
    65/132: $2$mem2reg_wr$\r_rresp_demux$axi4lite_arbiter_top.sv:672$513_ADDR[1:0]$778
    66/132: $2$mem2reg_wr$\r_rresp_demux$axi4lite_arbiter_top.sv:672$513_DATA[1:0]$779
    67/132: $2\r_rdata_demux[3][31:0]
    68/132: $2\r_rdata_demux[2][31:0]
    69/132: $2\r_rdata_demux[1][31:0]
    70/132: $2\r_rdata_demux[0][31:0]
    71/132: $2$mem2reg_wr$\r_rdata_demux$axi4lite_arbiter_top.sv:671$512_ADDR[1:0]$776
    72/132: $2$mem2reg_wr$\r_rdata_demux$axi4lite_arbiter_top.sv:671$512_DATA[31:0]$777
    73/132: $2\r_rvalid_demux[3:0]
    74/132: $2$bitselwrite$pos$axi4lite_arbiter_top.sv:670$500[1:0]$773
    75/132: $2$mem2reg_wr$\r_rresp_demux$axi4lite_arbiter_top.sv:682$517_DATA[1:0]$787
    76/132: $2$mem2reg_wr$\r_rresp_demux$axi4lite_arbiter_top.sv:682$517_ADDR[1:0]$786
    77/132: $2$mem2reg_wr$\r_rdata_demux$axi4lite_arbiter_top.sv:681$516_DATA[31:0]$785
    78/132: $2$mem2reg_wr$\r_rdata_demux$axi4lite_arbiter_top.sv:681$516_ADDR[1:0]$784
    79/132: $2$mem2reg_wr$\r_rresp_demux$axi4lite_arbiter_top.sv:677$515_DATA[1:0]$783
    80/132: $2$mem2reg_wr$\r_rresp_demux$axi4lite_arbiter_top.sv:677$515_ADDR[1:0]$782
    81/132: $2$mem2reg_wr$\r_rdata_demux$axi4lite_arbiter_top.sv:676$514_DATA[31:0]$781
    82/132: $2$mem2reg_wr$\r_rdata_demux$axi4lite_arbiter_top.sv:676$514_ADDR[1:0]$780
    83/132: $2$bitselwrite$pos$axi4lite_arbiter_top.sv:680$502[1:0]$775
    84/132: $2$bitselwrite$pos$axi4lite_arbiter_top.sv:675$501[1:0]$774
    85/132: $2\s1_rready_mux[0:0]
    86/132: $2\s0_rready_mux[0:0]
    87/132: $4\r_arready_demux[3:0]
    88/132: $4$bitselwrite$pos$axi4lite_arbiter_top.sv:663$499[1:0]$765
    89/132: $4\s1_arvalid_mux[0:0]
    90/132: $3\r_arready_demux[3:0]
    91/132: $3$bitselwrite$pos$axi4lite_arbiter_top.sv:660$498[1:0]$756
    92/132: $3\s0_arvalid_mux[0:0]
    93/132: $3$bitselwrite$pos$axi4lite_arbiter_top.sv:663$499[1:0]$757
    94/132: $3\s1_arvalid_mux[0:0]
    95/132: $2\r_arready_demux[3:0]
    96/132: $2$bitselwrite$pos$axi4lite_arbiter_top.sv:656$497[1:0]$746
    97/132: $2$bitselwrite$pos$axi4lite_arbiter_top.sv:663$499[1:0]$748
    98/132: $2$bitselwrite$pos$axi4lite_arbiter_top.sv:660$498[1:0]$747
    99/132: $2\s1_arvalid_mux[0:0]
   100/132: $2\s0_arvalid_mux[0:0]
   101/132: $1$mem2reg_wr$\r_rresp_demux$axi4lite_arbiter_top.sv:682$517_DATA[1:0]$745
   102/132: $1$mem2reg_wr$\r_rresp_demux$axi4lite_arbiter_top.sv:682$517_ADDR[1:0]$744
   103/132: $1$mem2reg_wr$\r_rdata_demux$axi4lite_arbiter_top.sv:681$516_DATA[31:0]$743
   104/132: $1$mem2reg_wr$\r_rdata_demux$axi4lite_arbiter_top.sv:681$516_ADDR[1:0]$742
   105/132: $1$mem2reg_wr$\r_rresp_demux$axi4lite_arbiter_top.sv:677$515_DATA[1:0]$741
   106/132: $1$mem2reg_wr$\r_rresp_demux$axi4lite_arbiter_top.sv:677$515_ADDR[1:0]$740
   107/132: $1$mem2reg_wr$\r_rdata_demux$axi4lite_arbiter_top.sv:676$514_DATA[31:0]$739
   108/132: $1$mem2reg_wr$\r_rdata_demux$axi4lite_arbiter_top.sv:676$514_ADDR[1:0]$738
   109/132: $1$mem2reg_wr$\r_rresp_demux$axi4lite_arbiter_top.sv:672$513_DATA[1:0]$737
   110/132: $1$mem2reg_wr$\r_rresp_demux$axi4lite_arbiter_top.sv:672$513_ADDR[1:0]$736
   111/132: $1$mem2reg_wr$\r_rdata_demux$axi4lite_arbiter_top.sv:671$512_DATA[31:0]$735
   112/132: $1$mem2reg_wr$\r_rdata_demux$axi4lite_arbiter_top.sv:671$512_ADDR[1:0]$734
   113/132: $1\r_rresp_demux[3][1:0]
   114/132: $1\r_rresp_demux[2][1:0]
   115/132: $1\r_rresp_demux[1][1:0]
   116/132: $1\r_rresp_demux[0][1:0]
   117/132: $1\r_rdata_demux[3][31:0]
   118/132: $1\r_rdata_demux[2][31:0]
   119/132: $1\r_rdata_demux[1][31:0]
   120/132: $1\r_rdata_demux[0][31:0]
   121/132: $1$bitselwrite$pos$axi4lite_arbiter_top.sv:680$502[1:0]$733
   122/132: $1$bitselwrite$pos$axi4lite_arbiter_top.sv:675$501[1:0]$732
   123/132: $1$bitselwrite$pos$axi4lite_arbiter_top.sv:670$500[1:0]$731
   124/132: $1$bitselwrite$pos$axi4lite_arbiter_top.sv:663$499[1:0]$730
   125/132: $1$bitselwrite$pos$axi4lite_arbiter_top.sv:660$498[1:0]$729
   126/132: $1$bitselwrite$pos$axi4lite_arbiter_top.sv:656$497[1:0]$728
   127/132: $1\s1_rready_mux[0:0]
   128/132: $1\s0_rready_mux[0:0]
   129/132: $1\s1_arvalid_mux[0:0]
   130/132: $1\s0_arvalid_mux[0:0]
   131/132: $1\r_rvalid_demux[3:0]
   132/132: $1\r_arready_demux[3:0]
Creating decoders for process `$paramod$20bf198c79fefe63fb33258281db4746901c4585\axi4lite_arbiter_top.$proc$axi4lite_arbiter_top.sv:578$679'.
     1/26: $4$mem2reg_rd$\m_arprot$axi4lite_arbiter_top.sv:595$511_DATA[2:0]$706
     2/26: $4$mem2reg_rd$\m_araddr$axi4lite_arbiter_top.sv:594$510_DATA[31:0]$705
     3/26: $3$mem2reg_rd$\m_arprot$axi4lite_arbiter_top.sv:595$511_DATA[2:0]$704
     4/26: $3$mem2reg_rd$\m_arprot$axi4lite_arbiter_top.sv:595$511_ADDR[1:0]$703
     5/26: $3$mem2reg_rd$\m_araddr$axi4lite_arbiter_top.sv:594$510_DATA[31:0]$702
     6/26: $3$mem2reg_rd$\m_araddr$axi4lite_arbiter_top.sv:594$510_ADDR[1:0]$701
     7/26: $3$mem2reg_rd$\m_arvalid$axi4lite_arbiter_top.sv:592$509_DATA[0:0]$699
     8/26: $2$mem2reg_rd$\m_arprot$axi4lite_arbiter_top.sv:595$511_DATA[2:0]$698
     9/26: $2$mem2reg_rd$\m_arprot$axi4lite_arbiter_top.sv:595$511_ADDR[1:0]$697
    10/26: $2$mem2reg_rd$\m_araddr$axi4lite_arbiter_top.sv:594$510_DATA[31:0]$696
    11/26: $2$mem2reg_rd$\m_araddr$axi4lite_arbiter_top.sv:594$510_ADDR[1:0]$695
    12/26: $2$mem2reg_rd$\m_arvalid$axi4lite_arbiter_top.sv:592$509_DATA[0:0]$694
    13/26: $2$mem2reg_rd$\m_arvalid$axi4lite_arbiter_top.sv:592$509_ADDR[1:0]$693
    14/26: $1$mem2reg_rd$\m_arprot$axi4lite_arbiter_top.sv:595$511_DATA[2:0]$692
    15/26: $1$mem2reg_rd$\m_arprot$axi4lite_arbiter_top.sv:595$511_ADDR[1:0]$691
    16/26: $1$mem2reg_rd$\m_araddr$axi4lite_arbiter_top.sv:594$510_DATA[31:0]$690
    17/26: $1$mem2reg_rd$\m_araddr$axi4lite_arbiter_top.sv:594$510_ADDR[1:0]$689
    18/26: $1$mem2reg_rd$\m_arvalid$axi4lite_arbiter_top.sv:592$509_DATA[0:0]$688
    19/26: $1$mem2reg_rd$\m_arvalid$axi4lite_arbiter_top.sv:592$509_ADDR[1:0]$687
    20/26: $0\read_arb_tx_done[0:0]
    21/26: $0\r_latched_prot[2:0]
    22/26: $0\r_latched_addr[31:0]
    23/26: $0\r_target_invalid[0:0]
    24/26: $0\r_target_slave_sel[1:0]
    25/26: $0\r_owner_m_id[1:0]
    26/26: $0\r_state[1:0]
Creating decoders for process `$paramod$20bf198c79fefe63fb33258281db4746901c4585\axi4lite_arbiter_top.$proc$axi4lite_arbiter_top.sv:0$678'.
     1/1: $1\r_owner_rready[0:0]
Creating decoders for process `$paramod$20bf198c79fefe63fb33258281db4746901c4585\axi4lite_arbiter_top.$proc$axi4lite_arbiter_top.sv:0$677'.
     1/4: $2\r_target_rvalid[0:0]
     2/4: $2\r_target_arready[0:0]
     3/4: $1\r_target_rvalid[0:0]
     4/4: $1\r_target_arready[0:0]
Creating decoders for process `$paramod$20bf198c79fefe63fb33258281db4746901c4585\axi4lite_arbiter_top.$proc$axi4lite_arbiter_top.sv:0$676'.
     1/1: $1\r_eval_addr[31:0]
Creating decoders for process `$paramod$20bf198c79fefe63fb33258281db4746901c4585\axi4lite_arbiter_top.$proc$axi4lite_arbiter_top.sv:0$551'.
     1/106: $7\w_bresp_demux[0][1:0]
     2/106: $7\w_bresp_demux[3][1:0]
     3/106: $7\w_bresp_demux[2][1:0]
     4/106: $7\w_bresp_demux[1][1:0]
     5/106: $4\s1_bready_mux[0:0]
     6/106: $6\w_bresp_demux[3][1:0]
     7/106: $6\w_bresp_demux[2][1:0]
     8/106: $6\w_bresp_demux[1][1:0]
     9/106: $6\w_bresp_demux[0][1:0]
    10/106: $4$mem2reg_wr$\w_bresp_demux$axi4lite_arbiter_top.sv:428$508_ADDR[1:0]$667
    11/106: $4$mem2reg_wr$\w_bresp_demux$axi4lite_arbiter_top.sv:428$508_DATA[1:0]$668
    12/106: $4\w_bvalid_demux[3:0]
    13/106: $4$bitselwrite$pos$axi4lite_arbiter_top.sv:427$496[1:0]$666
    14/106: $5\w_bresp_demux[0][1:0]
    15/106: $5\w_bresp_demux[3][1:0]
    16/106: $5\w_bresp_demux[2][1:0]
    17/106: $5\w_bresp_demux[1][1:0]
    18/106: $3\s0_bready_mux[0:0]
    19/106: $4\w_bresp_demux[3][1:0]
    20/106: $4\w_bresp_demux[2][1:0]
    21/106: $4\w_bresp_demux[1][1:0]
    22/106: $4\w_bresp_demux[0][1:0]
    23/106: $3$mem2reg_wr$\w_bresp_demux$axi4lite_arbiter_top.sv:424$507_ADDR[1:0]$655
    24/106: $3$mem2reg_wr$\w_bresp_demux$axi4lite_arbiter_top.sv:424$507_DATA[1:0]$656
    25/106: $3\w_bvalid_demux[3:0]
    26/106: $3$bitselwrite$pos$axi4lite_arbiter_top.sv:423$495[1:0]$653
    27/106: $3$mem2reg_wr$\w_bresp_demux$axi4lite_arbiter_top.sv:428$508_DATA[1:0]$658
    28/106: $3$mem2reg_wr$\w_bresp_demux$axi4lite_arbiter_top.sv:428$508_ADDR[1:0]$657
    29/106: $3$bitselwrite$pos$axi4lite_arbiter_top.sv:427$496[1:0]$654
    30/106: $3\s1_bready_mux[0:0]
    31/106: $3\w_bresp_demux[0][1:0]
    32/106: $3\w_bresp_demux[3][1:0]
    33/106: $3\w_bresp_demux[2][1:0]
    34/106: $3\w_bresp_demux[1][1:0]
    35/106: $2\w_bresp_demux[3][1:0]
    36/106: $2\w_bresp_demux[2][1:0]
    37/106: $2\w_bresp_demux[1][1:0]
    38/106: $2\w_bresp_demux[0][1:0]
    39/106: $2$mem2reg_wr$\w_bresp_demux$axi4lite_arbiter_top.sv:420$506_ADDR[1:0]$640
    40/106: $2$mem2reg_wr$\w_bresp_demux$axi4lite_arbiter_top.sv:420$506_DATA[1:0]$641
    41/106: $2\w_bvalid_demux[3:0]
    42/106: $2$bitselwrite$pos$axi4lite_arbiter_top.sv:419$494[1:0]$637
    43/106: $2$mem2reg_wr$\w_bresp_demux$axi4lite_arbiter_top.sv:428$508_DATA[1:0]$645
    44/106: $2$mem2reg_wr$\w_bresp_demux$axi4lite_arbiter_top.sv:428$508_ADDR[1:0]$644
    45/106: $2$mem2reg_wr$\w_bresp_demux$axi4lite_arbiter_top.sv:424$507_DATA[1:0]$643
    46/106: $2$mem2reg_wr$\w_bresp_demux$axi4lite_arbiter_top.sv:424$507_ADDR[1:0]$642
    47/106: $2$bitselwrite$pos$axi4lite_arbiter_top.sv:427$496[1:0]$639
    48/106: $2$bitselwrite$pos$axi4lite_arbiter_top.sv:423$495[1:0]$638
    49/106: $2\s1_bready_mux[0:0]
    50/106: $2\s0_bready_mux[0:0]
    51/106: $4\w_wready_demux[3:0]
    52/106: $4$bitselwrite$pos$axi4lite_arbiter_top.sv:412$493[1:0]$629
    53/106: $4\s1_wvalid_mux[0:0]
    54/106: $3\w_wready_demux[3:0]
    55/106: $3$bitselwrite$pos$axi4lite_arbiter_top.sv:409$492[1:0]$620
    56/106: $3\s0_wvalid_mux[0:0]
    57/106: $3$bitselwrite$pos$axi4lite_arbiter_top.sv:412$493[1:0]$621
    58/106: $3\s1_wvalid_mux[0:0]
    59/106: $2\w_wready_demux[3:0]
    60/106: $2$bitselwrite$pos$axi4lite_arbiter_top.sv:405$491[1:0]$610
    61/106: $2$bitselwrite$pos$axi4lite_arbiter_top.sv:412$493[1:0]$612
    62/106: $2$bitselwrite$pos$axi4lite_arbiter_top.sv:409$492[1:0]$611
    63/106: $2\s1_wvalid_mux[0:0]
    64/106: $2\s0_wvalid_mux[0:0]
    65/106: $4\w_awready_demux[3:0]
    66/106: $4$bitselwrite$pos$axi4lite_arbiter_top.sv:398$490[1:0]$602
    67/106: $4\s1_awvalid_mux[0:0]
    68/106: $3\w_awready_demux[3:0]
    69/106: $3$bitselwrite$pos$axi4lite_arbiter_top.sv:395$489[1:0]$593
    70/106: $3\s0_awvalid_mux[0:0]
    71/106: $3$bitselwrite$pos$axi4lite_arbiter_top.sv:398$490[1:0]$594
    72/106: $3\s1_awvalid_mux[0:0]
    73/106: $2\w_awready_demux[3:0]
    74/106: $2$bitselwrite$pos$axi4lite_arbiter_top.sv:391$488[1:0]$583
    75/106: $2$bitselwrite$pos$axi4lite_arbiter_top.sv:398$490[1:0]$585
    76/106: $2$bitselwrite$pos$axi4lite_arbiter_top.sv:395$489[1:0]$584
    77/106: $2\s1_awvalid_mux[0:0]
    78/106: $2\s0_awvalid_mux[0:0]
    79/106: $1$mem2reg_wr$\w_bresp_demux$axi4lite_arbiter_top.sv:428$508_DATA[1:0]$582
    80/106: $1$mem2reg_wr$\w_bresp_demux$axi4lite_arbiter_top.sv:428$508_ADDR[1:0]$581
    81/106: $1$mem2reg_wr$\w_bresp_demux$axi4lite_arbiter_top.sv:424$507_DATA[1:0]$580
    82/106: $1$mem2reg_wr$\w_bresp_demux$axi4lite_arbiter_top.sv:424$507_ADDR[1:0]$579
    83/106: $1$mem2reg_wr$\w_bresp_demux$axi4lite_arbiter_top.sv:420$506_DATA[1:0]$578
    84/106: $1$mem2reg_wr$\w_bresp_demux$axi4lite_arbiter_top.sv:420$506_ADDR[1:0]$577
    85/106: $1\w_bresp_demux[3][1:0]
    86/106: $1\w_bresp_demux[2][1:0]
    87/106: $1\w_bresp_demux[1][1:0]
    88/106: $1\w_bresp_demux[0][1:0]
    89/106: $1$bitselwrite$pos$axi4lite_arbiter_top.sv:427$496[1:0]$576
    90/106: $1$bitselwrite$pos$axi4lite_arbiter_top.sv:423$495[1:0]$575
    91/106: $1$bitselwrite$pos$axi4lite_arbiter_top.sv:419$494[1:0]$574
    92/106: $1$bitselwrite$pos$axi4lite_arbiter_top.sv:412$493[1:0]$573
    93/106: $1$bitselwrite$pos$axi4lite_arbiter_top.sv:409$492[1:0]$572
    94/106: $1$bitselwrite$pos$axi4lite_arbiter_top.sv:405$491[1:0]$571
    95/106: $1$bitselwrite$pos$axi4lite_arbiter_top.sv:398$490[1:0]$570
    96/106: $1$bitselwrite$pos$axi4lite_arbiter_top.sv:395$489[1:0]$569
    97/106: $1$bitselwrite$pos$axi4lite_arbiter_top.sv:391$488[1:0]$568
    98/106: $1\s1_bready_mux[0:0]
    99/106: $1\s0_bready_mux[0:0]
   100/106: $1\s1_wvalid_mux[0:0]
   101/106: $1\s0_wvalid_mux[0:0]
   102/106: $1\s1_awvalid_mux[0:0]
   103/106: $1\s0_awvalid_mux[0:0]
   104/106: $1\w_bvalid_demux[3:0]
   105/106: $1\w_wready_demux[3:0]
   106/106: $1\w_awready_demux[3:0]
Creating decoders for process `$paramod$20bf198c79fefe63fb33258281db4746901c4585\axi4lite_arbiter_top.$proc$axi4lite_arbiter_top.sv:302$521'.
     1/26: $4$mem2reg_rd$\m_awprot$axi4lite_arbiter_top.sv:319$505_DATA[2:0]$548
     2/26: $4$mem2reg_rd$\m_awaddr$axi4lite_arbiter_top.sv:318$504_DATA[31:0]$547
     3/26: $3$mem2reg_rd$\m_awprot$axi4lite_arbiter_top.sv:319$505_DATA[2:0]$546
     4/26: $3$mem2reg_rd$\m_awprot$axi4lite_arbiter_top.sv:319$505_ADDR[1:0]$545
     5/26: $3$mem2reg_rd$\m_awaddr$axi4lite_arbiter_top.sv:318$504_DATA[31:0]$544
     6/26: $3$mem2reg_rd$\m_awaddr$axi4lite_arbiter_top.sv:318$504_ADDR[1:0]$543
     7/26: $3$mem2reg_rd$\m_awvalid$axi4lite_arbiter_top.sv:316$503_DATA[0:0]$541
     8/26: $2$mem2reg_rd$\m_awprot$axi4lite_arbiter_top.sv:319$505_DATA[2:0]$540
     9/26: $2$mem2reg_rd$\m_awprot$axi4lite_arbiter_top.sv:319$505_ADDR[1:0]$539
    10/26: $2$mem2reg_rd$\m_awaddr$axi4lite_arbiter_top.sv:318$504_DATA[31:0]$538
    11/26: $2$mem2reg_rd$\m_awaddr$axi4lite_arbiter_top.sv:318$504_ADDR[1:0]$537
    12/26: $2$mem2reg_rd$\m_awvalid$axi4lite_arbiter_top.sv:316$503_DATA[0:0]$536
    13/26: $2$mem2reg_rd$\m_awvalid$axi4lite_arbiter_top.sv:316$503_ADDR[1:0]$535
    14/26: $1$mem2reg_rd$\m_awprot$axi4lite_arbiter_top.sv:319$505_DATA[2:0]$534
    15/26: $1$mem2reg_rd$\m_awprot$axi4lite_arbiter_top.sv:319$505_ADDR[1:0]$533
    16/26: $1$mem2reg_rd$\m_awaddr$axi4lite_arbiter_top.sv:318$504_DATA[31:0]$532
    17/26: $1$mem2reg_rd$\m_awaddr$axi4lite_arbiter_top.sv:318$504_ADDR[1:0]$531
    18/26: $1$mem2reg_rd$\m_awvalid$axi4lite_arbiter_top.sv:316$503_DATA[0:0]$530
    19/26: $1$mem2reg_rd$\m_awvalid$axi4lite_arbiter_top.sv:316$503_ADDR[1:0]$529
    20/26: $0\write_arb_tx_done[0:0]
    21/26: $0\w_latched_prot[2:0]
    22/26: $0\w_latched_addr[31:0]
    23/26: $0\w_target_invalid[0:0]
    24/26: $0\w_target_slave_sel[1:0]
    25/26: $0\w_owner_m_id[1:0]
    26/26: $0\w_state[1:0]
Creating decoders for process `$paramod$20bf198c79fefe63fb33258281db4746901c4585\axi4lite_arbiter_top.$proc$axi4lite_arbiter_top.sv:0$520'.
     1/4: $1\w_owner_bready[0:0]
     2/4: $1\w_owner_wvalid[0:0]
     3/4: $1\w_owner_wstrb[3:0]
     4/4: $1\w_owner_wdata[31:0]
Creating decoders for process `$paramod$20bf198c79fefe63fb33258281db4746901c4585\axi4lite_arbiter_top.$proc$axi4lite_arbiter_top.sv:0$519'.
     1/6: $2\w_target_bvalid[0:0]
     2/6: $2\w_target_wready[0:0]
     3/6: $2\w_target_awready[0:0]
     4/6: $1\w_target_bvalid[0:0]
     5/6: $1\w_target_wready[0:0]
     6/6: $1\w_target_awready[0:0]
Creating decoders for process `$paramod$20bf198c79fefe63fb33258281db4746901c4585\axi4lite_arbiter_top.$proc$axi4lite_arbiter_top.sv:0$518'.
     1/1: $1\w_eval_addr[31:0]
Creating decoders for process `\arbiter_formal.$proc$arbiter_formal.sv:133$487'.
Creating decoders for process `\arbiter_formal.$proc$arbiter_formal.sv:191$449'.
     1/7: $assume$arbiter_formal.sv:211$485_EN
     2/7: $assume$arbiter_formal.sv:208$480_EN
     3/7: $assume$arbiter_formal.sv:203$473_EN
     4/7: $assume$arbiter_formal.sv:202$471_EN
     5/7: $assume$arbiter_formal.sv:201$470_EN
     6/7: $assume$arbiter_formal.sv:196$466_EN
     7/7: $assume$arbiter_formal.sv:195$465_EN
Creating decoders for process `\arbiter_formal.$proc$arbiter_formal.sv:191$411'.
     1/7: $assume$arbiter_formal.sv:211$447_EN
     2/7: $assume$arbiter_formal.sv:208$442_EN
     3/7: $assume$arbiter_formal.sv:203$435_EN
     4/7: $assume$arbiter_formal.sv:202$433_EN
     5/7: $assume$arbiter_formal.sv:201$432_EN
     6/7: $assume$arbiter_formal.sv:196$428_EN
     7/7: $assume$arbiter_formal.sv:195$427_EN
Creating decoders for process `\arbiter_formal.$proc$arbiter_formal.sv:160$376'.
     1/9: $assume$arbiter_formal.sv:180$409_EN
     2/9: $assume$arbiter_formal.sv:179$407_EN
     3/9: $assume$arbiter_formal.sv:178$406_EN
     4/9: $assume$arbiter_formal.sv:173$402_EN
     5/9: $assume$arbiter_formal.sv:172$400_EN
     6/9: $assume$arbiter_formal.sv:171$399_EN
     7/9: $assume$arbiter_formal.sv:166$395_EN
     8/9: $assume$arbiter_formal.sv:165$393_EN
     9/9: $assume$arbiter_formal.sv:164$392_EN
Creating decoders for process `\arbiter_formal.$proc$arbiter_formal.sv:160$341'.
     1/9: $assume$arbiter_formal.sv:180$374_EN
     2/9: $assume$arbiter_formal.sv:179$372_EN
     3/9: $assume$arbiter_formal.sv:178$371_EN
     4/9: $assume$arbiter_formal.sv:173$367_EN
     5/9: $assume$arbiter_formal.sv:172$365_EN
     6/9: $assume$arbiter_formal.sv:171$364_EN
     7/9: $assume$arbiter_formal.sv:166$360_EN
     8/9: $assume$arbiter_formal.sv:165$358_EN
     9/9: $assume$arbiter_formal.sv:164$357_EN
Creating decoders for process `\arbiter_formal.$proc$arbiter_formal.sv:160$306'.
     1/9: $assume$arbiter_formal.sv:180$339_EN
     2/9: $assume$arbiter_formal.sv:179$337_EN
     3/9: $assume$arbiter_formal.sv:178$336_EN
     4/9: $assume$arbiter_formal.sv:173$332_EN
     5/9: $assume$arbiter_formal.sv:172$330_EN
     6/9: $assume$arbiter_formal.sv:171$329_EN
     7/9: $assume$arbiter_formal.sv:166$325_EN
     8/9: $assume$arbiter_formal.sv:165$323_EN
     9/9: $assume$arbiter_formal.sv:164$322_EN
Creating decoders for process `\arbiter_formal.$proc$arbiter_formal.sv:160$271'.
     1/9: $assume$arbiter_formal.sv:180$304_EN
     2/9: $assume$arbiter_formal.sv:179$302_EN
     3/9: $assume$arbiter_formal.sv:178$301_EN
     4/9: $assume$arbiter_formal.sv:173$297_EN
     5/9: $assume$arbiter_formal.sv:172$295_EN
     6/9: $assume$arbiter_formal.sv:171$294_EN
     7/9: $assume$arbiter_formal.sv:166$290_EN
     8/9: $assume$arbiter_formal.sv:165$288_EN
     9/9: $assume$arbiter_formal.sv:164$287_EN
Creating decoders for process `\arbiter_formal.$proc$arbiter_formal.sv:263$253'.
     1/8: $assert$arbiter_formal.sv:272$269_EN
     2/8: $assert$arbiter_formal.sv:271$267_EN
     3/8: $assert$arbiter_formal.sv:270$265_EN
     4/8: $assert$arbiter_formal.sv:269$263_EN
     5/8: $assert$arbiter_formal.sv:268$261_EN
     6/8: $assert$arbiter_formal.sv:267$259_EN
     7/8: $assert$arbiter_formal.sv:266$257_EN
     8/8: $assert$arbiter_formal.sv:265$255_EN
Creating decoders for process `\arbiter_formal.$proc$arbiter_formal.sv:255$216'.
     1/2: $assert$arbiter_formal.sv:258$235_EN
     2/2: $assert$arbiter_formal.sv:257$217_EN
Creating decoders for process `\arbiter_formal.$proc$arbiter_formal.sv:243$209'.
     1/2: $assert$arbiter_formal.sv:249$214_EN
     2/2: $assert$arbiter_formal.sv:246$211_EN
Creating decoders for process `\arbiter_formal.$proc$arbiter_formal.sv:234$178'.
     1/3: $assert$arbiter_formal.sv:238$199_EN
     2/3: $assert$arbiter_formal.sv:237$189_EN
     3/3: $assert$arbiter_formal.sv:236$179_EN
Creating decoders for process `\arbiter_formal.$proc$arbiter_formal.sv:223$87'.
     1/5: $assert$arbiter_formal.sv:229$160_EN
     2/5: $assert$arbiter_formal.sv:228$142_EN
     3/5: $assert$arbiter_formal.sv:227$124_EN
     4/5: $assert$arbiter_formal.sv:226$106_EN
     5/5: $assert$arbiter_formal.sv:225$88_EN
Creating decoders for process `\arbiter_formal.$proc$arbiter_formal.sv:143$81'.
     1/2: $assume$arbiter_formal.sv:147$85_EN
     2/2: $assume$arbiter_formal.sv:145$83_EN
Creating decoders for process `\arbiter_formal.$proc$arbiter_formal.sv:134$77'.
     1/1: $0\f_reset_count[2:0]

5.3.8. Executing PROC_DLATCH pass (convert process syncs to latches).
No latch inferred for signal `$paramod$508cca98229eff1b70362476b43647777eac3ce1\qos_arbiter.\grant' from process `$paramod$508cca98229eff1b70362476b43647777eac3ce1\qos_arbiter.$proc$qos_arbiter.sv:0$887'.
No latch inferred for signal `$paramod$508cca98229eff1b70362476b43647777eac3ce1\qos_arbiter.\master_id' from process `$paramod$508cca98229eff1b70362476b43647777eac3ce1\qos_arbiter.$proc$qos_arbiter.sv:0$887'.
No latch inferred for signal `$paramod$508cca98229eff1b70362476b43647777eac3ce1\qos_arbiter.\grant_valid' from process `$paramod$508cca98229eff1b70362476b43647777eac3ce1\qos_arbiter.$proc$qos_arbiter.sv:0$887'.
No latch inferred for signal `$paramod$508cca98229eff1b70362476b43647777eac3ce1\qos_arbiter.$bitselwrite$pos$qos_arbiter.sv:249$834' from process `$paramod$508cca98229eff1b70362476b43647777eac3ce1\qos_arbiter.$proc$qos_arbiter.sv:0$887'.
No latch inferred for signal `$paramod$508cca98229eff1b70362476b43647777eac3ce1\qos_arbiter.$bitselwrite$pos$qos_arbiter.sv:253$835' from process `$paramod$508cca98229eff1b70362476b43647777eac3ce1\qos_arbiter.$proc$qos_arbiter.sv:0$887'.
No latch inferred for signal `$paramod$508cca98229eff1b70362476b43647777eac3ce1\qos_arbiter.\next_cand' from process `$paramod$508cca98229eff1b70362476b43647777eac3ce1\qos_arbiter.$proc$qos_arbiter.sv:0$847'.
No latch inferred for signal `$paramod$508cca98229eff1b70362476b43647777eac3ce1\qos_arbiter.\cand_valid' from process `$paramod$508cca98229eff1b70362476b43647777eac3ce1\qos_arbiter.$proc$qos_arbiter.sv:0$847'.
No latch inferred for signal `$paramod$508cca98229eff1b70362476b43647777eac3ce1\qos_arbiter.\eff_q1' from process `$paramod$508cca98229eff1b70362476b43647777eac3ce1\qos_arbiter.$proc$qos_arbiter.sv:0$838'.
No latch inferred for signal `$paramod$508cca98229eff1b70362476b43647777eac3ce1\qos_arbiter.\eff_q2' from process `$paramod$508cca98229eff1b70362476b43647777eac3ce1\qos_arbiter.$proc$qos_arbiter.sv:0$838'.
No latch inferred for signal `$paramod$508cca98229eff1b70362476b43647777eac3ce1\qos_arbiter.\eff_q3' from process `$paramod$508cca98229eff1b70362476b43647777eac3ce1\qos_arbiter.$proc$qos_arbiter.sv:0$838'.
No latch inferred for signal `$paramod$508cca98229eff1b70362476b43647777eac3ce1\qos_arbiter.\eff_rr_ptr' from process `$paramod$508cca98229eff1b70362476b43647777eac3ce1\qos_arbiter.$proc$qos_arbiter.sv:0$838'.
No latch inferred for signal `$paramod$508cca98229eff1b70362476b43647777eac3ce1\qos_arbiter.\eff_starvation' from process `$paramod$508cca98229eff1b70362476b43647777eac3ce1\qos_arbiter.$proc$qos_arbiter.sv:0$838'.
No latch inferred for signal `$paramod$59f66e305bd3b47082af7a1e20206251db0b33b5\addr_decoder.\slave_sel' from process `$paramod$59f66e305bd3b47082af7a1e20206251db0b33b5\addr_decoder.$proc$addr_decoder.sv:0$825'.
No latch inferred for signal `$paramod$59f66e305bd3b47082af7a1e20206251db0b33b5\addr_decoder.\valid_addr' from process `$paramod$59f66e305bd3b47082af7a1e20206251db0b33b5\addr_decoder.$proc$addr_decoder.sv:0$825'.
No latch inferred for signal `$paramod$59f66e305bd3b47082af7a1e20206251db0b33b5\addr_decoder.\invalid_addr' from process `$paramod$59f66e305bd3b47082af7a1e20206251db0b33b5\addr_decoder.$proc$addr_decoder.sv:0$825'.
No latch inferred for signal `$paramod$59f66e305bd3b47082af7a1e20206251db0b33b5\addr_decoder.\match_s0' from process `$paramod$59f66e305bd3b47082af7a1e20206251db0b33b5\addr_decoder.$proc$addr_decoder.sv:0$825'.
No latch inferred for signal `$paramod$59f66e305bd3b47082af7a1e20206251db0b33b5\addr_decoder.\match_s1' from process `$paramod$59f66e305bd3b47082af7a1e20206251db0b33b5\addr_decoder.$proc$addr_decoder.sv:0$825'.
No latch inferred for signal `$paramod$20bf198c79fefe63fb33258281db4746901c4585\axi4lite_arbiter_top.\m_awaddr[0]' from process `$paramod$20bf198c79fefe63fb33258281db4746901c4585\axi4lite_arbiter_top.$proc$axi4lite_arbiter_top.sv:0$824'.
No latch inferred for signal `$paramod$20bf198c79fefe63fb33258281db4746901c4585\axi4lite_arbiter_top.\m_awaddr[1]' from process `$paramod$20bf198c79fefe63fb33258281db4746901c4585\axi4lite_arbiter_top.$proc$axi4lite_arbiter_top.sv:0$824'.
No latch inferred for signal `$paramod$20bf198c79fefe63fb33258281db4746901c4585\axi4lite_arbiter_top.\m_awaddr[2]' from process `$paramod$20bf198c79fefe63fb33258281db4746901c4585\axi4lite_arbiter_top.$proc$axi4lite_arbiter_top.sv:0$824'.
No latch inferred for signal `$paramod$20bf198c79fefe63fb33258281db4746901c4585\axi4lite_arbiter_top.\m_awaddr[3]' from process `$paramod$20bf198c79fefe63fb33258281db4746901c4585\axi4lite_arbiter_top.$proc$axi4lite_arbiter_top.sv:0$824'.
No latch inferred for signal `$paramod$20bf198c79fefe63fb33258281db4746901c4585\axi4lite_arbiter_top.\m_awprot[0]' from process `$paramod$20bf198c79fefe63fb33258281db4746901c4585\axi4lite_arbiter_top.$proc$axi4lite_arbiter_top.sv:0$824'.
No latch inferred for signal `$paramod$20bf198c79fefe63fb33258281db4746901c4585\axi4lite_arbiter_top.\m_awprot[1]' from process `$paramod$20bf198c79fefe63fb33258281db4746901c4585\axi4lite_arbiter_top.$proc$axi4lite_arbiter_top.sv:0$824'.
No latch inferred for signal `$paramod$20bf198c79fefe63fb33258281db4746901c4585\axi4lite_arbiter_top.\m_awprot[2]' from process `$paramod$20bf198c79fefe63fb33258281db4746901c4585\axi4lite_arbiter_top.$proc$axi4lite_arbiter_top.sv:0$824'.
No latch inferred for signal `$paramod$20bf198c79fefe63fb33258281db4746901c4585\axi4lite_arbiter_top.\m_awprot[3]' from process `$paramod$20bf198c79fefe63fb33258281db4746901c4585\axi4lite_arbiter_top.$proc$axi4lite_arbiter_top.sv:0$824'.
No latch inferred for signal `$paramod$20bf198c79fefe63fb33258281db4746901c4585\axi4lite_arbiter_top.\m_awvalid[0]' from process `$paramod$20bf198c79fefe63fb33258281db4746901c4585\axi4lite_arbiter_top.$proc$axi4lite_arbiter_top.sv:0$824'.
No latch inferred for signal `$paramod$20bf198c79fefe63fb33258281db4746901c4585\axi4lite_arbiter_top.\m_awvalid[1]' from process `$paramod$20bf198c79fefe63fb33258281db4746901c4585\axi4lite_arbiter_top.$proc$axi4lite_arbiter_top.sv:0$824'.
No latch inferred for signal `$paramod$20bf198c79fefe63fb33258281db4746901c4585\axi4lite_arbiter_top.\m_awvalid[2]' from process `$paramod$20bf198c79fefe63fb33258281db4746901c4585\axi4lite_arbiter_top.$proc$axi4lite_arbiter_top.sv:0$824'.
No latch inferred for signal `$paramod$20bf198c79fefe63fb33258281db4746901c4585\axi4lite_arbiter_top.\m_awvalid[3]' from process `$paramod$20bf198c79fefe63fb33258281db4746901c4585\axi4lite_arbiter_top.$proc$axi4lite_arbiter_top.sv:0$824'.
No latch inferred for signal `$paramod$20bf198c79fefe63fb33258281db4746901c4585\axi4lite_arbiter_top.\m_wdata[0]' from process `$paramod$20bf198c79fefe63fb33258281db4746901c4585\axi4lite_arbiter_top.$proc$axi4lite_arbiter_top.sv:0$824'.
No latch inferred for signal `$paramod$20bf198c79fefe63fb33258281db4746901c4585\axi4lite_arbiter_top.\m_wdata[1]' from process `$paramod$20bf198c79fefe63fb33258281db4746901c4585\axi4lite_arbiter_top.$proc$axi4lite_arbiter_top.sv:0$824'.
No latch inferred for signal `$paramod$20bf198c79fefe63fb33258281db4746901c4585\axi4lite_arbiter_top.\m_wdata[2]' from process `$paramod$20bf198c79fefe63fb33258281db4746901c4585\axi4lite_arbiter_top.$proc$axi4lite_arbiter_top.sv:0$824'.
No latch inferred for signal `$paramod$20bf198c79fefe63fb33258281db4746901c4585\axi4lite_arbiter_top.\m_wdata[3]' from process `$paramod$20bf198c79fefe63fb33258281db4746901c4585\axi4lite_arbiter_top.$proc$axi4lite_arbiter_top.sv:0$824'.
No latch inferred for signal `$paramod$20bf198c79fefe63fb33258281db4746901c4585\axi4lite_arbiter_top.\m_wstrb[0]' from process `$paramod$20bf198c79fefe63fb33258281db4746901c4585\axi4lite_arbiter_top.$proc$axi4lite_arbiter_top.sv:0$824'.
No latch inferred for signal `$paramod$20bf198c79fefe63fb33258281db4746901c4585\axi4lite_arbiter_top.\m_wstrb[1]' from process `$paramod$20bf198c79fefe63fb33258281db4746901c4585\axi4lite_arbiter_top.$proc$axi4lite_arbiter_top.sv:0$824'.
No latch inferred for signal `$paramod$20bf198c79fefe63fb33258281db4746901c4585\axi4lite_arbiter_top.\m_wstrb[2]' from process `$paramod$20bf198c79fefe63fb33258281db4746901c4585\axi4lite_arbiter_top.$proc$axi4lite_arbiter_top.sv:0$824'.
No latch inferred for signal `$paramod$20bf198c79fefe63fb33258281db4746901c4585\axi4lite_arbiter_top.\m_wstrb[3]' from process `$paramod$20bf198c79fefe63fb33258281db4746901c4585\axi4lite_arbiter_top.$proc$axi4lite_arbiter_top.sv:0$824'.
No latch inferred for signal `$paramod$20bf198c79fefe63fb33258281db4746901c4585\axi4lite_arbiter_top.\m_wvalid[0]' from process `$paramod$20bf198c79fefe63fb33258281db4746901c4585\axi4lite_arbiter_top.$proc$axi4lite_arbiter_top.sv:0$824'.
No latch inferred for signal `$paramod$20bf198c79fefe63fb33258281db4746901c4585\axi4lite_arbiter_top.\m_wvalid[1]' from process `$paramod$20bf198c79fefe63fb33258281db4746901c4585\axi4lite_arbiter_top.$proc$axi4lite_arbiter_top.sv:0$824'.
No latch inferred for signal `$paramod$20bf198c79fefe63fb33258281db4746901c4585\axi4lite_arbiter_top.\m_wvalid[2]' from process `$paramod$20bf198c79fefe63fb33258281db4746901c4585\axi4lite_arbiter_top.$proc$axi4lite_arbiter_top.sv:0$824'.
No latch inferred for signal `$paramod$20bf198c79fefe63fb33258281db4746901c4585\axi4lite_arbiter_top.\m_wvalid[3]' from process `$paramod$20bf198c79fefe63fb33258281db4746901c4585\axi4lite_arbiter_top.$proc$axi4lite_arbiter_top.sv:0$824'.
No latch inferred for signal `$paramod$20bf198c79fefe63fb33258281db4746901c4585\axi4lite_arbiter_top.\m_bready[0]' from process `$paramod$20bf198c79fefe63fb33258281db4746901c4585\axi4lite_arbiter_top.$proc$axi4lite_arbiter_top.sv:0$824'.
No latch inferred for signal `$paramod$20bf198c79fefe63fb33258281db4746901c4585\axi4lite_arbiter_top.\m_bready[1]' from process `$paramod$20bf198c79fefe63fb33258281db4746901c4585\axi4lite_arbiter_top.$proc$axi4lite_arbiter_top.sv:0$824'.
No latch inferred for signal `$paramod$20bf198c79fefe63fb33258281db4746901c4585\axi4lite_arbiter_top.\m_bready[2]' from process `$paramod$20bf198c79fefe63fb33258281db4746901c4585\axi4lite_arbiter_top.$proc$axi4lite_arbiter_top.sv:0$824'.
No latch inferred for signal `$paramod$20bf198c79fefe63fb33258281db4746901c4585\axi4lite_arbiter_top.\m_bready[3]' from process `$paramod$20bf198c79fefe63fb33258281db4746901c4585\axi4lite_arbiter_top.$proc$axi4lite_arbiter_top.sv:0$824'.
No latch inferred for signal `$paramod$20bf198c79fefe63fb33258281db4746901c4585\axi4lite_arbiter_top.\m_araddr[0]' from process `$paramod$20bf198c79fefe63fb33258281db4746901c4585\axi4lite_arbiter_top.$proc$axi4lite_arbiter_top.sv:0$824'.
No latch inferred for signal `$paramod$20bf198c79fefe63fb33258281db4746901c4585\axi4lite_arbiter_top.\m_araddr[1]' from process `$paramod$20bf198c79fefe63fb33258281db4746901c4585\axi4lite_arbiter_top.$proc$axi4lite_arbiter_top.sv:0$824'.
No latch inferred for signal `$paramod$20bf198c79fefe63fb33258281db4746901c4585\axi4lite_arbiter_top.\m_araddr[2]' from process `$paramod$20bf198c79fefe63fb33258281db4746901c4585\axi4lite_arbiter_top.$proc$axi4lite_arbiter_top.sv:0$824'.
No latch inferred for signal `$paramod$20bf198c79fefe63fb33258281db4746901c4585\axi4lite_arbiter_top.\m_araddr[3]' from process `$paramod$20bf198c79fefe63fb33258281db4746901c4585\axi4lite_arbiter_top.$proc$axi4lite_arbiter_top.sv:0$824'.
No latch inferred for signal `$paramod$20bf198c79fefe63fb33258281db4746901c4585\axi4lite_arbiter_top.\m_arprot[0]' from process `$paramod$20bf198c79fefe63fb33258281db4746901c4585\axi4lite_arbiter_top.$proc$axi4lite_arbiter_top.sv:0$824'.
No latch inferred for signal `$paramod$20bf198c79fefe63fb33258281db4746901c4585\axi4lite_arbiter_top.\m_arprot[1]' from process `$paramod$20bf198c79fefe63fb33258281db4746901c4585\axi4lite_arbiter_top.$proc$axi4lite_arbiter_top.sv:0$824'.
No latch inferred for signal `$paramod$20bf198c79fefe63fb33258281db4746901c4585\axi4lite_arbiter_top.\m_arprot[2]' from process `$paramod$20bf198c79fefe63fb33258281db4746901c4585\axi4lite_arbiter_top.$proc$axi4lite_arbiter_top.sv:0$824'.
No latch inferred for signal `$paramod$20bf198c79fefe63fb33258281db4746901c4585\axi4lite_arbiter_top.\m_arprot[3]' from process `$paramod$20bf198c79fefe63fb33258281db4746901c4585\axi4lite_arbiter_top.$proc$axi4lite_arbiter_top.sv:0$824'.
No latch inferred for signal `$paramod$20bf198c79fefe63fb33258281db4746901c4585\axi4lite_arbiter_top.\m_arvalid[0]' from process `$paramod$20bf198c79fefe63fb33258281db4746901c4585\axi4lite_arbiter_top.$proc$axi4lite_arbiter_top.sv:0$824'.
No latch inferred for signal `$paramod$20bf198c79fefe63fb33258281db4746901c4585\axi4lite_arbiter_top.\m_arvalid[1]' from process `$paramod$20bf198c79fefe63fb33258281db4746901c4585\axi4lite_arbiter_top.$proc$axi4lite_arbiter_top.sv:0$824'.
No latch inferred for signal `$paramod$20bf198c79fefe63fb33258281db4746901c4585\axi4lite_arbiter_top.\m_arvalid[2]' from process `$paramod$20bf198c79fefe63fb33258281db4746901c4585\axi4lite_arbiter_top.$proc$axi4lite_arbiter_top.sv:0$824'.
No latch inferred for signal `$paramod$20bf198c79fefe63fb33258281db4746901c4585\axi4lite_arbiter_top.\m_arvalid[3]' from process `$paramod$20bf198c79fefe63fb33258281db4746901c4585\axi4lite_arbiter_top.$proc$axi4lite_arbiter_top.sv:0$824'.
No latch inferred for signal `$paramod$20bf198c79fefe63fb33258281db4746901c4585\axi4lite_arbiter_top.\m_rready[0]' from process `$paramod$20bf198c79fefe63fb33258281db4746901c4585\axi4lite_arbiter_top.$proc$axi4lite_arbiter_top.sv:0$824'.
No latch inferred for signal `$paramod$20bf198c79fefe63fb33258281db4746901c4585\axi4lite_arbiter_top.\m_rready[1]' from process `$paramod$20bf198c79fefe63fb33258281db4746901c4585\axi4lite_arbiter_top.$proc$axi4lite_arbiter_top.sv:0$824'.
No latch inferred for signal `$paramod$20bf198c79fefe63fb33258281db4746901c4585\axi4lite_arbiter_top.\m_rready[2]' from process `$paramod$20bf198c79fefe63fb33258281db4746901c4585\axi4lite_arbiter_top.$proc$axi4lite_arbiter_top.sv:0$824'.
No latch inferred for signal `$paramod$20bf198c79fefe63fb33258281db4746901c4585\axi4lite_arbiter_top.\m_rready[3]' from process `$paramod$20bf198c79fefe63fb33258281db4746901c4585\axi4lite_arbiter_top.$proc$axi4lite_arbiter_top.sv:0$824'.
No latch inferred for signal `$paramod$20bf198c79fefe63fb33258281db4746901c4585\axi4lite_arbiter_top.\r_arready_demux' from process `$paramod$20bf198c79fefe63fb33258281db4746901c4585\axi4lite_arbiter_top.$proc$axi4lite_arbiter_top.sv:0$708'.
No latch inferred for signal `$paramod$20bf198c79fefe63fb33258281db4746901c4585\axi4lite_arbiter_top.\r_rvalid_demux' from process `$paramod$20bf198c79fefe63fb33258281db4746901c4585\axi4lite_arbiter_top.$proc$axi4lite_arbiter_top.sv:0$708'.
No latch inferred for signal `$paramod$20bf198c79fefe63fb33258281db4746901c4585\axi4lite_arbiter_top.\s0_arvalid_mux' from process `$paramod$20bf198c79fefe63fb33258281db4746901c4585\axi4lite_arbiter_top.$proc$axi4lite_arbiter_top.sv:0$708'.
No latch inferred for signal `$paramod$20bf198c79fefe63fb33258281db4746901c4585\axi4lite_arbiter_top.\s1_arvalid_mux' from process `$paramod$20bf198c79fefe63fb33258281db4746901c4585\axi4lite_arbiter_top.$proc$axi4lite_arbiter_top.sv:0$708'.
No latch inferred for signal `$paramod$20bf198c79fefe63fb33258281db4746901c4585\axi4lite_arbiter_top.\s0_rready_mux' from process `$paramod$20bf198c79fefe63fb33258281db4746901c4585\axi4lite_arbiter_top.$proc$axi4lite_arbiter_top.sv:0$708'.
No latch inferred for signal `$paramod$20bf198c79fefe63fb33258281db4746901c4585\axi4lite_arbiter_top.\s1_rready_mux' from process `$paramod$20bf198c79fefe63fb33258281db4746901c4585\axi4lite_arbiter_top.$proc$axi4lite_arbiter_top.sv:0$708'.
No latch inferred for signal `$paramod$20bf198c79fefe63fb33258281db4746901c4585\axi4lite_arbiter_top.$fordecl_block$3.i' from process `$paramod$20bf198c79fefe63fb33258281db4746901c4585\axi4lite_arbiter_top.$proc$axi4lite_arbiter_top.sv:0$708'.
No latch inferred for signal `$paramod$20bf198c79fefe63fb33258281db4746901c4585\axi4lite_arbiter_top.$bitselwrite$pos$axi4lite_arbiter_top.sv:656$497' from process `$paramod$20bf198c79fefe63fb33258281db4746901c4585\axi4lite_arbiter_top.$proc$axi4lite_arbiter_top.sv:0$708'.
No latch inferred for signal `$paramod$20bf198c79fefe63fb33258281db4746901c4585\axi4lite_arbiter_top.$bitselwrite$pos$axi4lite_arbiter_top.sv:660$498' from process `$paramod$20bf198c79fefe63fb33258281db4746901c4585\axi4lite_arbiter_top.$proc$axi4lite_arbiter_top.sv:0$708'.
No latch inferred for signal `$paramod$20bf198c79fefe63fb33258281db4746901c4585\axi4lite_arbiter_top.$bitselwrite$pos$axi4lite_arbiter_top.sv:663$499' from process `$paramod$20bf198c79fefe63fb33258281db4746901c4585\axi4lite_arbiter_top.$proc$axi4lite_arbiter_top.sv:0$708'.
No latch inferred for signal `$paramod$20bf198c79fefe63fb33258281db4746901c4585\axi4lite_arbiter_top.$bitselwrite$pos$axi4lite_arbiter_top.sv:670$500' from process `$paramod$20bf198c79fefe63fb33258281db4746901c4585\axi4lite_arbiter_top.$proc$axi4lite_arbiter_top.sv:0$708'.
No latch inferred for signal `$paramod$20bf198c79fefe63fb33258281db4746901c4585\axi4lite_arbiter_top.$bitselwrite$pos$axi4lite_arbiter_top.sv:675$501' from process `$paramod$20bf198c79fefe63fb33258281db4746901c4585\axi4lite_arbiter_top.$proc$axi4lite_arbiter_top.sv:0$708'.
No latch inferred for signal `$paramod$20bf198c79fefe63fb33258281db4746901c4585\axi4lite_arbiter_top.$bitselwrite$pos$axi4lite_arbiter_top.sv:680$502' from process `$paramod$20bf198c79fefe63fb33258281db4746901c4585\axi4lite_arbiter_top.$proc$axi4lite_arbiter_top.sv:0$708'.
No latch inferred for signal `$paramod$20bf198c79fefe63fb33258281db4746901c4585\axi4lite_arbiter_top.\r_rdata_demux[0]' from process `$paramod$20bf198c79fefe63fb33258281db4746901c4585\axi4lite_arbiter_top.$proc$axi4lite_arbiter_top.sv:0$708'.
No latch inferred for signal `$paramod$20bf198c79fefe63fb33258281db4746901c4585\axi4lite_arbiter_top.\r_rdata_demux[1]' from process `$paramod$20bf198c79fefe63fb33258281db4746901c4585\axi4lite_arbiter_top.$proc$axi4lite_arbiter_top.sv:0$708'.
No latch inferred for signal `$paramod$20bf198c79fefe63fb33258281db4746901c4585\axi4lite_arbiter_top.\r_rdata_demux[2]' from process `$paramod$20bf198c79fefe63fb33258281db4746901c4585\axi4lite_arbiter_top.$proc$axi4lite_arbiter_top.sv:0$708'.
No latch inferred for signal `$paramod$20bf198c79fefe63fb33258281db4746901c4585\axi4lite_arbiter_top.\r_rdata_demux[3]' from process `$paramod$20bf198c79fefe63fb33258281db4746901c4585\axi4lite_arbiter_top.$proc$axi4lite_arbiter_top.sv:0$708'.
No latch inferred for signal `$paramod$20bf198c79fefe63fb33258281db4746901c4585\axi4lite_arbiter_top.\r_rresp_demux[0]' from process `$paramod$20bf198c79fefe63fb33258281db4746901c4585\axi4lite_arbiter_top.$proc$axi4lite_arbiter_top.sv:0$708'.
No latch inferred for signal `$paramod$20bf198c79fefe63fb33258281db4746901c4585\axi4lite_arbiter_top.\r_rresp_demux[1]' from process `$paramod$20bf198c79fefe63fb33258281db4746901c4585\axi4lite_arbiter_top.$proc$axi4lite_arbiter_top.sv:0$708'.
No latch inferred for signal `$paramod$20bf198c79fefe63fb33258281db4746901c4585\axi4lite_arbiter_top.\r_rresp_demux[2]' from process `$paramod$20bf198c79fefe63fb33258281db4746901c4585\axi4lite_arbiter_top.$proc$axi4lite_arbiter_top.sv:0$708'.
No latch inferred for signal `$paramod$20bf198c79fefe63fb33258281db4746901c4585\axi4lite_arbiter_top.\r_rresp_demux[3]' from process `$paramod$20bf198c79fefe63fb33258281db4746901c4585\axi4lite_arbiter_top.$proc$axi4lite_arbiter_top.sv:0$708'.
No latch inferred for signal `$paramod$20bf198c79fefe63fb33258281db4746901c4585\axi4lite_arbiter_top.$mem2reg_wr$\r_rdata_demux$axi4lite_arbiter_top.sv:671$512_ADDR' from process `$paramod$20bf198c79fefe63fb33258281db4746901c4585\axi4lite_arbiter_top.$proc$axi4lite_arbiter_top.sv:0$708'.
No latch inferred for signal `$paramod$20bf198c79fefe63fb33258281db4746901c4585\axi4lite_arbiter_top.$mem2reg_wr$\r_rdata_demux$axi4lite_arbiter_top.sv:671$512_DATA' from process `$paramod$20bf198c79fefe63fb33258281db4746901c4585\axi4lite_arbiter_top.$proc$axi4lite_arbiter_top.sv:0$708'.
No latch inferred for signal `$paramod$20bf198c79fefe63fb33258281db4746901c4585\axi4lite_arbiter_top.$mem2reg_wr$\r_rresp_demux$axi4lite_arbiter_top.sv:672$513_ADDR' from process `$paramod$20bf198c79fefe63fb33258281db4746901c4585\axi4lite_arbiter_top.$proc$axi4lite_arbiter_top.sv:0$708'.
No latch inferred for signal `$paramod$20bf198c79fefe63fb33258281db4746901c4585\axi4lite_arbiter_top.$mem2reg_wr$\r_rresp_demux$axi4lite_arbiter_top.sv:672$513_DATA' from process `$paramod$20bf198c79fefe63fb33258281db4746901c4585\axi4lite_arbiter_top.$proc$axi4lite_arbiter_top.sv:0$708'.
No latch inferred for signal `$paramod$20bf198c79fefe63fb33258281db4746901c4585\axi4lite_arbiter_top.$mem2reg_wr$\r_rdata_demux$axi4lite_arbiter_top.sv:676$514_ADDR' from process `$paramod$20bf198c79fefe63fb33258281db4746901c4585\axi4lite_arbiter_top.$proc$axi4lite_arbiter_top.sv:0$708'.
No latch inferred for signal `$paramod$20bf198c79fefe63fb33258281db4746901c4585\axi4lite_arbiter_top.$mem2reg_wr$\r_rdata_demux$axi4lite_arbiter_top.sv:676$514_DATA' from process `$paramod$20bf198c79fefe63fb33258281db4746901c4585\axi4lite_arbiter_top.$proc$axi4lite_arbiter_top.sv:0$708'.
No latch inferred for signal `$paramod$20bf198c79fefe63fb33258281db4746901c4585\axi4lite_arbiter_top.$mem2reg_wr$\r_rresp_demux$axi4lite_arbiter_top.sv:677$515_ADDR' from process `$paramod$20bf198c79fefe63fb33258281db4746901c4585\axi4lite_arbiter_top.$proc$axi4lite_arbiter_top.sv:0$708'.
No latch inferred for signal `$paramod$20bf198c79fefe63fb33258281db4746901c4585\axi4lite_arbiter_top.$mem2reg_wr$\r_rresp_demux$axi4lite_arbiter_top.sv:677$515_DATA' from process `$paramod$20bf198c79fefe63fb33258281db4746901c4585\axi4lite_arbiter_top.$proc$axi4lite_arbiter_top.sv:0$708'.
No latch inferred for signal `$paramod$20bf198c79fefe63fb33258281db4746901c4585\axi4lite_arbiter_top.$mem2reg_wr$\r_rdata_demux$axi4lite_arbiter_top.sv:681$516_ADDR' from process `$paramod$20bf198c79fefe63fb33258281db4746901c4585\axi4lite_arbiter_top.$proc$axi4lite_arbiter_top.sv:0$708'.
No latch inferred for signal `$paramod$20bf198c79fefe63fb33258281db4746901c4585\axi4lite_arbiter_top.$mem2reg_wr$\r_rdata_demux$axi4lite_arbiter_top.sv:681$516_DATA' from process `$paramod$20bf198c79fefe63fb33258281db4746901c4585\axi4lite_arbiter_top.$proc$axi4lite_arbiter_top.sv:0$708'.
No latch inferred for signal `$paramod$20bf198c79fefe63fb33258281db4746901c4585\axi4lite_arbiter_top.$mem2reg_wr$\r_rresp_demux$axi4lite_arbiter_top.sv:682$517_ADDR' from process `$paramod$20bf198c79fefe63fb33258281db4746901c4585\axi4lite_arbiter_top.$proc$axi4lite_arbiter_top.sv:0$708'.
No latch inferred for signal `$paramod$20bf198c79fefe63fb33258281db4746901c4585\axi4lite_arbiter_top.$mem2reg_wr$\r_rresp_demux$axi4lite_arbiter_top.sv:682$517_DATA' from process `$paramod$20bf198c79fefe63fb33258281db4746901c4585\axi4lite_arbiter_top.$proc$axi4lite_arbiter_top.sv:0$708'.
No latch inferred for signal `$paramod$20bf198c79fefe63fb33258281db4746901c4585\axi4lite_arbiter_top.\r_owner_rready' from process `$paramod$20bf198c79fefe63fb33258281db4746901c4585\axi4lite_arbiter_top.$proc$axi4lite_arbiter_top.sv:0$678'.
No latch inferred for signal `$paramod$20bf198c79fefe63fb33258281db4746901c4585\axi4lite_arbiter_top.\r_target_arready' from process `$paramod$20bf198c79fefe63fb33258281db4746901c4585\axi4lite_arbiter_top.$proc$axi4lite_arbiter_top.sv:0$677'.
No latch inferred for signal `$paramod$20bf198c79fefe63fb33258281db4746901c4585\axi4lite_arbiter_top.\r_target_rvalid' from process `$paramod$20bf198c79fefe63fb33258281db4746901c4585\axi4lite_arbiter_top.$proc$axi4lite_arbiter_top.sv:0$677'.
No latch inferred for signal `$paramod$20bf198c79fefe63fb33258281db4746901c4585\axi4lite_arbiter_top.\r_eval_addr' from process `$paramod$20bf198c79fefe63fb33258281db4746901c4585\axi4lite_arbiter_top.$proc$axi4lite_arbiter_top.sv:0$676'.
No latch inferred for signal `$paramod$20bf198c79fefe63fb33258281db4746901c4585\axi4lite_arbiter_top.\w_awready_demux' from process `$paramod$20bf198c79fefe63fb33258281db4746901c4585\axi4lite_arbiter_top.$proc$axi4lite_arbiter_top.sv:0$551'.
No latch inferred for signal `$paramod$20bf198c79fefe63fb33258281db4746901c4585\axi4lite_arbiter_top.\w_wready_demux' from process `$paramod$20bf198c79fefe63fb33258281db4746901c4585\axi4lite_arbiter_top.$proc$axi4lite_arbiter_top.sv:0$551'.
No latch inferred for signal `$paramod$20bf198c79fefe63fb33258281db4746901c4585\axi4lite_arbiter_top.\w_bvalid_demux' from process `$paramod$20bf198c79fefe63fb33258281db4746901c4585\axi4lite_arbiter_top.$proc$axi4lite_arbiter_top.sv:0$551'.
No latch inferred for signal `$paramod$20bf198c79fefe63fb33258281db4746901c4585\axi4lite_arbiter_top.\s0_awvalid_mux' from process `$paramod$20bf198c79fefe63fb33258281db4746901c4585\axi4lite_arbiter_top.$proc$axi4lite_arbiter_top.sv:0$551'.
No latch inferred for signal `$paramod$20bf198c79fefe63fb33258281db4746901c4585\axi4lite_arbiter_top.\s1_awvalid_mux' from process `$paramod$20bf198c79fefe63fb33258281db4746901c4585\axi4lite_arbiter_top.$proc$axi4lite_arbiter_top.sv:0$551'.
No latch inferred for signal `$paramod$20bf198c79fefe63fb33258281db4746901c4585\axi4lite_arbiter_top.\s0_wvalid_mux' from process `$paramod$20bf198c79fefe63fb33258281db4746901c4585\axi4lite_arbiter_top.$proc$axi4lite_arbiter_top.sv:0$551'.
No latch inferred for signal `$paramod$20bf198c79fefe63fb33258281db4746901c4585\axi4lite_arbiter_top.\s1_wvalid_mux' from process `$paramod$20bf198c79fefe63fb33258281db4746901c4585\axi4lite_arbiter_top.$proc$axi4lite_arbiter_top.sv:0$551'.
No latch inferred for signal `$paramod$20bf198c79fefe63fb33258281db4746901c4585\axi4lite_arbiter_top.\s0_bready_mux' from process `$paramod$20bf198c79fefe63fb33258281db4746901c4585\axi4lite_arbiter_top.$proc$axi4lite_arbiter_top.sv:0$551'.
No latch inferred for signal `$paramod$20bf198c79fefe63fb33258281db4746901c4585\axi4lite_arbiter_top.\s1_bready_mux' from process `$paramod$20bf198c79fefe63fb33258281db4746901c4585\axi4lite_arbiter_top.$proc$axi4lite_arbiter_top.sv:0$551'.
No latch inferred for signal `$paramod$20bf198c79fefe63fb33258281db4746901c4585\axi4lite_arbiter_top.$fordecl_block$1.i' from process `$paramod$20bf198c79fefe63fb33258281db4746901c4585\axi4lite_arbiter_top.$proc$axi4lite_arbiter_top.sv:0$551'.
No latch inferred for signal `$paramod$20bf198c79fefe63fb33258281db4746901c4585\axi4lite_arbiter_top.$bitselwrite$pos$axi4lite_arbiter_top.sv:391$488' from process `$paramod$20bf198c79fefe63fb33258281db4746901c4585\axi4lite_arbiter_top.$proc$axi4lite_arbiter_top.sv:0$551'.
No latch inferred for signal `$paramod$20bf198c79fefe63fb33258281db4746901c4585\axi4lite_arbiter_top.$bitselwrite$pos$axi4lite_arbiter_top.sv:395$489' from process `$paramod$20bf198c79fefe63fb33258281db4746901c4585\axi4lite_arbiter_top.$proc$axi4lite_arbiter_top.sv:0$551'.
No latch inferred for signal `$paramod$20bf198c79fefe63fb33258281db4746901c4585\axi4lite_arbiter_top.$bitselwrite$pos$axi4lite_arbiter_top.sv:398$490' from process `$paramod$20bf198c79fefe63fb33258281db4746901c4585\axi4lite_arbiter_top.$proc$axi4lite_arbiter_top.sv:0$551'.
No latch inferred for signal `$paramod$20bf198c79fefe63fb33258281db4746901c4585\axi4lite_arbiter_top.$bitselwrite$pos$axi4lite_arbiter_top.sv:405$491' from process `$paramod$20bf198c79fefe63fb33258281db4746901c4585\axi4lite_arbiter_top.$proc$axi4lite_arbiter_top.sv:0$551'.
No latch inferred for signal `$paramod$20bf198c79fefe63fb33258281db4746901c4585\axi4lite_arbiter_top.$bitselwrite$pos$axi4lite_arbiter_top.sv:409$492' from process `$paramod$20bf198c79fefe63fb33258281db4746901c4585\axi4lite_arbiter_top.$proc$axi4lite_arbiter_top.sv:0$551'.
No latch inferred for signal `$paramod$20bf198c79fefe63fb33258281db4746901c4585\axi4lite_arbiter_top.$bitselwrite$pos$axi4lite_arbiter_top.sv:412$493' from process `$paramod$20bf198c79fefe63fb33258281db4746901c4585\axi4lite_arbiter_top.$proc$axi4lite_arbiter_top.sv:0$551'.
No latch inferred for signal `$paramod$20bf198c79fefe63fb33258281db4746901c4585\axi4lite_arbiter_top.$bitselwrite$pos$axi4lite_arbiter_top.sv:419$494' from process `$paramod$20bf198c79fefe63fb33258281db4746901c4585\axi4lite_arbiter_top.$proc$axi4lite_arbiter_top.sv:0$551'.
No latch inferred for signal `$paramod$20bf198c79fefe63fb33258281db4746901c4585\axi4lite_arbiter_top.$bitselwrite$pos$axi4lite_arbiter_top.sv:423$495' from process `$paramod$20bf198c79fefe63fb33258281db4746901c4585\axi4lite_arbiter_top.$proc$axi4lite_arbiter_top.sv:0$551'.
No latch inferred for signal `$paramod$20bf198c79fefe63fb33258281db4746901c4585\axi4lite_arbiter_top.$bitselwrite$pos$axi4lite_arbiter_top.sv:427$496' from process `$paramod$20bf198c79fefe63fb33258281db4746901c4585\axi4lite_arbiter_top.$proc$axi4lite_arbiter_top.sv:0$551'.
No latch inferred for signal `$paramod$20bf198c79fefe63fb33258281db4746901c4585\axi4lite_arbiter_top.\w_bresp_demux[0]' from process `$paramod$20bf198c79fefe63fb33258281db4746901c4585\axi4lite_arbiter_top.$proc$axi4lite_arbiter_top.sv:0$551'.
No latch inferred for signal `$paramod$20bf198c79fefe63fb33258281db4746901c4585\axi4lite_arbiter_top.\w_bresp_demux[1]' from process `$paramod$20bf198c79fefe63fb33258281db4746901c4585\axi4lite_arbiter_top.$proc$axi4lite_arbiter_top.sv:0$551'.
No latch inferred for signal `$paramod$20bf198c79fefe63fb33258281db4746901c4585\axi4lite_arbiter_top.\w_bresp_demux[2]' from process `$paramod$20bf198c79fefe63fb33258281db4746901c4585\axi4lite_arbiter_top.$proc$axi4lite_arbiter_top.sv:0$551'.
No latch inferred for signal `$paramod$20bf198c79fefe63fb33258281db4746901c4585\axi4lite_arbiter_top.\w_bresp_demux[3]' from process `$paramod$20bf198c79fefe63fb33258281db4746901c4585\axi4lite_arbiter_top.$proc$axi4lite_arbiter_top.sv:0$551'.
No latch inferred for signal `$paramod$20bf198c79fefe63fb33258281db4746901c4585\axi4lite_arbiter_top.$mem2reg_wr$\w_bresp_demux$axi4lite_arbiter_top.sv:420$506_ADDR' from process `$paramod$20bf198c79fefe63fb33258281db4746901c4585\axi4lite_arbiter_top.$proc$axi4lite_arbiter_top.sv:0$551'.
No latch inferred for signal `$paramod$20bf198c79fefe63fb33258281db4746901c4585\axi4lite_arbiter_top.$mem2reg_wr$\w_bresp_demux$axi4lite_arbiter_top.sv:420$506_DATA' from process `$paramod$20bf198c79fefe63fb33258281db4746901c4585\axi4lite_arbiter_top.$proc$axi4lite_arbiter_top.sv:0$551'.
No latch inferred for signal `$paramod$20bf198c79fefe63fb33258281db4746901c4585\axi4lite_arbiter_top.$mem2reg_wr$\w_bresp_demux$axi4lite_arbiter_top.sv:424$507_ADDR' from process `$paramod$20bf198c79fefe63fb33258281db4746901c4585\axi4lite_arbiter_top.$proc$axi4lite_arbiter_top.sv:0$551'.
No latch inferred for signal `$paramod$20bf198c79fefe63fb33258281db4746901c4585\axi4lite_arbiter_top.$mem2reg_wr$\w_bresp_demux$axi4lite_arbiter_top.sv:424$507_DATA' from process `$paramod$20bf198c79fefe63fb33258281db4746901c4585\axi4lite_arbiter_top.$proc$axi4lite_arbiter_top.sv:0$551'.
No latch inferred for signal `$paramod$20bf198c79fefe63fb33258281db4746901c4585\axi4lite_arbiter_top.$mem2reg_wr$\w_bresp_demux$axi4lite_arbiter_top.sv:428$508_ADDR' from process `$paramod$20bf198c79fefe63fb33258281db4746901c4585\axi4lite_arbiter_top.$proc$axi4lite_arbiter_top.sv:0$551'.
No latch inferred for signal `$paramod$20bf198c79fefe63fb33258281db4746901c4585\axi4lite_arbiter_top.$mem2reg_wr$\w_bresp_demux$axi4lite_arbiter_top.sv:428$508_DATA' from process `$paramod$20bf198c79fefe63fb33258281db4746901c4585\axi4lite_arbiter_top.$proc$axi4lite_arbiter_top.sv:0$551'.
No latch inferred for signal `$paramod$20bf198c79fefe63fb33258281db4746901c4585\axi4lite_arbiter_top.\w_owner_wdata' from process `$paramod$20bf198c79fefe63fb33258281db4746901c4585\axi4lite_arbiter_top.$proc$axi4lite_arbiter_top.sv:0$520'.
No latch inferred for signal `$paramod$20bf198c79fefe63fb33258281db4746901c4585\axi4lite_arbiter_top.\w_owner_wstrb' from process `$paramod$20bf198c79fefe63fb33258281db4746901c4585\axi4lite_arbiter_top.$proc$axi4lite_arbiter_top.sv:0$520'.
No latch inferred for signal `$paramod$20bf198c79fefe63fb33258281db4746901c4585\axi4lite_arbiter_top.\w_owner_wvalid' from process `$paramod$20bf198c79fefe63fb33258281db4746901c4585\axi4lite_arbiter_top.$proc$axi4lite_arbiter_top.sv:0$520'.
No latch inferred for signal `$paramod$20bf198c79fefe63fb33258281db4746901c4585\axi4lite_arbiter_top.\w_owner_bready' from process `$paramod$20bf198c79fefe63fb33258281db4746901c4585\axi4lite_arbiter_top.$proc$axi4lite_arbiter_top.sv:0$520'.
No latch inferred for signal `$paramod$20bf198c79fefe63fb33258281db4746901c4585\axi4lite_arbiter_top.\w_target_awready' from process `$paramod$20bf198c79fefe63fb33258281db4746901c4585\axi4lite_arbiter_top.$proc$axi4lite_arbiter_top.sv:0$519'.
No latch inferred for signal `$paramod$20bf198c79fefe63fb33258281db4746901c4585\axi4lite_arbiter_top.\w_target_wready' from process `$paramod$20bf198c79fefe63fb33258281db4746901c4585\axi4lite_arbiter_top.$proc$axi4lite_arbiter_top.sv:0$519'.
No latch inferred for signal `$paramod$20bf198c79fefe63fb33258281db4746901c4585\axi4lite_arbiter_top.\w_target_bvalid' from process `$paramod$20bf198c79fefe63fb33258281db4746901c4585\axi4lite_arbiter_top.$proc$axi4lite_arbiter_top.sv:0$519'.
No latch inferred for signal `$paramod$20bf198c79fefe63fb33258281db4746901c4585\axi4lite_arbiter_top.\w_eval_addr' from process `$paramod$20bf198c79fefe63fb33258281db4746901c4585\axi4lite_arbiter_top.$proc$axi4lite_arbiter_top.sv:0$518'.

5.3.9. Executing PROC_DFF pass (convert process syncs to FFs).
Creating register for signal `$paramod$508cca98229eff1b70362476b43647777eac3ce1\qos_arbiter.\starvation_flag' using process `$paramod$508cca98229eff1b70362476b43647777eac3ce1\qos_arbiter.$proc$qos_arbiter.sv:179$869'.
  created $adff cell `$procdff$4503' with positive edge clock and positive level reset.
Creating register for signal `$paramod$508cca98229eff1b70362476b43647777eac3ce1\qos_arbiter.\current_master' using process `$paramod$508cca98229eff1b70362476b43647777eac3ce1\qos_arbiter.$proc$qos_arbiter.sv:179$869'.
  created $adff cell `$procdff$4508' with positive edge clock and positive level reset.
Creating register for signal `$paramod$508cca98229eff1b70362476b43647777eac3ce1\qos_arbiter.\is_active' using process `$paramod$508cca98229eff1b70362476b43647777eac3ce1\qos_arbiter.$proc$qos_arbiter.sv:179$869'.
  created $adff cell `$procdff$4513' with positive edge clock and positive level reset.
Creating register for signal `$paramod$508cca98229eff1b70362476b43647777eac3ce1\qos_arbiter.\quota_1' using process `$paramod$508cca98229eff1b70362476b43647777eac3ce1\qos_arbiter.$proc$qos_arbiter.sv:179$869'.
  created $adff cell `$procdff$4518' with positive edge clock and positive level reset.
Creating register for signal `$paramod$508cca98229eff1b70362476b43647777eac3ce1\qos_arbiter.\quota_2' using process `$paramod$508cca98229eff1b70362476b43647777eac3ce1\qos_arbiter.$proc$qos_arbiter.sv:179$869'.
  created $adff cell `$procdff$4523' with positive edge clock and positive level reset.
Creating register for signal `$paramod$508cca98229eff1b70362476b43647777eac3ce1\qos_arbiter.\quota_3' using process `$paramod$508cca98229eff1b70362476b43647777eac3ce1\qos_arbiter.$proc$qos_arbiter.sv:179$869'.
  created $adff cell `$procdff$4528' with positive edge clock and positive level reset.
Creating register for signal `$paramod$508cca98229eff1b70362476b43647777eac3ce1\qos_arbiter.\rr_ptr' using process `$paramod$508cca98229eff1b70362476b43647777eac3ce1\qos_arbiter.$proc$qos_arbiter.sv:179$869'.
  created $adff cell `$procdff$4533' with positive edge clock and positive level reset.
Creating register for signal `$paramod$508cca98229eff1b70362476b43647777eac3ce1\qos_arbiter.\age_counter' using process `$paramod$508cca98229eff1b70362476b43647777eac3ce1\qos_arbiter.$proc$qos_arbiter.sv:179$869'.
  created $adff cell `$procdff$4538' with positive edge clock and positive level reset.
Creating register for signal `$paramod$20bf198c79fefe63fb33258281db4746901c4585\axi4lite_arbiter_top.\r_state' using process `$paramod$20bf198c79fefe63fb33258281db4746901c4585\axi4lite_arbiter_top.$proc$axi4lite_arbiter_top.sv:578$679'.
  created $adff cell `$procdff$4543' with positive edge clock and positive level reset.
Creating register for signal `$paramod$20bf198c79fefe63fb33258281db4746901c4585\axi4lite_arbiter_top.\r_owner_m_id' using process `$paramod$20bf198c79fefe63fb33258281db4746901c4585\axi4lite_arbiter_top.$proc$axi4lite_arbiter_top.sv:578$679'.
  created $adff cell `$procdff$4548' with positive edge clock and positive level reset.
Creating register for signal `$paramod$20bf198c79fefe63fb33258281db4746901c4585\axi4lite_arbiter_top.\r_target_slave_sel' using process `$paramod$20bf198c79fefe63fb33258281db4746901c4585\axi4lite_arbiter_top.$proc$axi4lite_arbiter_top.sv:578$679'.
  created $adff cell `$procdff$4553' with positive edge clock and positive level reset.
Creating register for signal `$paramod$20bf198c79fefe63fb33258281db4746901c4585\axi4lite_arbiter_top.\r_target_invalid' using process `$paramod$20bf198c79fefe63fb33258281db4746901c4585\axi4lite_arbiter_top.$proc$axi4lite_arbiter_top.sv:578$679'.
  created $adff cell `$procdff$4558' with positive edge clock and positive level reset.
Creating register for signal `$paramod$20bf198c79fefe63fb33258281db4746901c4585\axi4lite_arbiter_top.\r_latched_addr' using process `$paramod$20bf198c79fefe63fb33258281db4746901c4585\axi4lite_arbiter_top.$proc$axi4lite_arbiter_top.sv:578$679'.
  created $adff cell `$procdff$4563' with positive edge clock and positive level reset.
Creating register for signal `$paramod$20bf198c79fefe63fb33258281db4746901c4585\axi4lite_arbiter_top.\r_latched_prot' using process `$paramod$20bf198c79fefe63fb33258281db4746901c4585\axi4lite_arbiter_top.$proc$axi4lite_arbiter_top.sv:578$679'.
  created $adff cell `$procdff$4568' with positive edge clock and positive level reset.
Creating register for signal `$paramod$20bf198c79fefe63fb33258281db4746901c4585\axi4lite_arbiter_top.\read_arb_tx_done' using process `$paramod$20bf198c79fefe63fb33258281db4746901c4585\axi4lite_arbiter_top.$proc$axi4lite_arbiter_top.sv:578$679'.
  created $adff cell `$procdff$4573' with positive edge clock and positive level reset.
Creating register for signal `$paramod$20bf198c79fefe63fb33258281db4746901c4585\axi4lite_arbiter_top.$mem2reg_rd$\m_arvalid$axi4lite_arbiter_top.sv:592$509_ADDR' using process `$paramod$20bf198c79fefe63fb33258281db4746901c4585\axi4lite_arbiter_top.$proc$axi4lite_arbiter_top.sv:578$679'.
  created $adff cell `$procdff$4578' with positive edge clock and positive level reset.
Creating register for signal `$paramod$20bf198c79fefe63fb33258281db4746901c4585\axi4lite_arbiter_top.$mem2reg_rd$\m_arvalid$axi4lite_arbiter_top.sv:592$509_DATA' using process `$paramod$20bf198c79fefe63fb33258281db4746901c4585\axi4lite_arbiter_top.$proc$axi4lite_arbiter_top.sv:578$679'.
  created $adff cell `$procdff$4583' with positive edge clock and positive level reset.
Creating register for signal `$paramod$20bf198c79fefe63fb33258281db4746901c4585\axi4lite_arbiter_top.$mem2reg_rd$\m_araddr$axi4lite_arbiter_top.sv:594$510_ADDR' using process `$paramod$20bf198c79fefe63fb33258281db4746901c4585\axi4lite_arbiter_top.$proc$axi4lite_arbiter_top.sv:578$679'.
  created $adff cell `$procdff$4588' with positive edge clock and positive level reset.
Creating register for signal `$paramod$20bf198c79fefe63fb33258281db4746901c4585\axi4lite_arbiter_top.$mem2reg_rd$\m_araddr$axi4lite_arbiter_top.sv:594$510_DATA' using process `$paramod$20bf198c79fefe63fb33258281db4746901c4585\axi4lite_arbiter_top.$proc$axi4lite_arbiter_top.sv:578$679'.
  created $adff cell `$procdff$4593' with positive edge clock and positive level reset.
Creating register for signal `$paramod$20bf198c79fefe63fb33258281db4746901c4585\axi4lite_arbiter_top.$mem2reg_rd$\m_arprot$axi4lite_arbiter_top.sv:595$511_ADDR' using process `$paramod$20bf198c79fefe63fb33258281db4746901c4585\axi4lite_arbiter_top.$proc$axi4lite_arbiter_top.sv:578$679'.
  created $adff cell `$procdff$4598' with positive edge clock and positive level reset.
Creating register for signal `$paramod$20bf198c79fefe63fb33258281db4746901c4585\axi4lite_arbiter_top.$mem2reg_rd$\m_arprot$axi4lite_arbiter_top.sv:595$511_DATA' using process `$paramod$20bf198c79fefe63fb33258281db4746901c4585\axi4lite_arbiter_top.$proc$axi4lite_arbiter_top.sv:578$679'.
  created $adff cell `$procdff$4603' with positive edge clock and positive level reset.
Creating register for signal `$paramod$20bf198c79fefe63fb33258281db4746901c4585\axi4lite_arbiter_top.\w_state' using process `$paramod$20bf198c79fefe63fb33258281db4746901c4585\axi4lite_arbiter_top.$proc$axi4lite_arbiter_top.sv:302$521'.
  created $adff cell `$procdff$4608' with positive edge clock and positive level reset.
Creating register for signal `$paramod$20bf198c79fefe63fb33258281db4746901c4585\axi4lite_arbiter_top.\w_owner_m_id' using process `$paramod$20bf198c79fefe63fb33258281db4746901c4585\axi4lite_arbiter_top.$proc$axi4lite_arbiter_top.sv:302$521'.
  created $adff cell `$procdff$4613' with positive edge clock and positive level reset.
Creating register for signal `$paramod$20bf198c79fefe63fb33258281db4746901c4585\axi4lite_arbiter_top.\w_target_slave_sel' using process `$paramod$20bf198c79fefe63fb33258281db4746901c4585\axi4lite_arbiter_top.$proc$axi4lite_arbiter_top.sv:302$521'.
  created $adff cell `$procdff$4618' with positive edge clock and positive level reset.
Creating register for signal `$paramod$20bf198c79fefe63fb33258281db4746901c4585\axi4lite_arbiter_top.\w_target_invalid' using process `$paramod$20bf198c79fefe63fb33258281db4746901c4585\axi4lite_arbiter_top.$proc$axi4lite_arbiter_top.sv:302$521'.
  created $adff cell `$procdff$4623' with positive edge clock and positive level reset.
Creating register for signal `$paramod$20bf198c79fefe63fb33258281db4746901c4585\axi4lite_arbiter_top.\w_latched_addr' using process `$paramod$20bf198c79fefe63fb33258281db4746901c4585\axi4lite_arbiter_top.$proc$axi4lite_arbiter_top.sv:302$521'.
  created $adff cell `$procdff$4628' with positive edge clock and positive level reset.
Creating register for signal `$paramod$20bf198c79fefe63fb33258281db4746901c4585\axi4lite_arbiter_top.\w_latched_prot' using process `$paramod$20bf198c79fefe63fb33258281db4746901c4585\axi4lite_arbiter_top.$proc$axi4lite_arbiter_top.sv:302$521'.
  created $adff cell `$procdff$4633' with positive edge clock and positive level reset.
Creating register for signal `$paramod$20bf198c79fefe63fb33258281db4746901c4585\axi4lite_arbiter_top.\write_arb_tx_done' using process `$paramod$20bf198c79fefe63fb33258281db4746901c4585\axi4lite_arbiter_top.$proc$axi4lite_arbiter_top.sv:302$521'.
  created $adff cell `$procdff$4638' with positive edge clock and positive level reset.
Creating register for signal `$paramod$20bf198c79fefe63fb33258281db4746901c4585\axi4lite_arbiter_top.$mem2reg_rd$\m_awvalid$axi4lite_arbiter_top.sv:316$503_ADDR' using process `$paramod$20bf198c79fefe63fb33258281db4746901c4585\axi4lite_arbiter_top.$proc$axi4lite_arbiter_top.sv:302$521'.
  created $adff cell `$procdff$4643' with positive edge clock and positive level reset.
Creating register for signal `$paramod$20bf198c79fefe63fb33258281db4746901c4585\axi4lite_arbiter_top.$mem2reg_rd$\m_awvalid$axi4lite_arbiter_top.sv:316$503_DATA' using process `$paramod$20bf198c79fefe63fb33258281db4746901c4585\axi4lite_arbiter_top.$proc$axi4lite_arbiter_top.sv:302$521'.
  created $adff cell `$procdff$4648' with positive edge clock and positive level reset.
Creating register for signal `$paramod$20bf198c79fefe63fb33258281db4746901c4585\axi4lite_arbiter_top.$mem2reg_rd$\m_awaddr$axi4lite_arbiter_top.sv:318$504_ADDR' using process `$paramod$20bf198c79fefe63fb33258281db4746901c4585\axi4lite_arbiter_top.$proc$axi4lite_arbiter_top.sv:302$521'.
  created $adff cell `$procdff$4653' with positive edge clock and positive level reset.
Creating register for signal `$paramod$20bf198c79fefe63fb33258281db4746901c4585\axi4lite_arbiter_top.$mem2reg_rd$\m_awaddr$axi4lite_arbiter_top.sv:318$504_DATA' using process `$paramod$20bf198c79fefe63fb33258281db4746901c4585\axi4lite_arbiter_top.$proc$axi4lite_arbiter_top.sv:302$521'.
  created $adff cell `$procdff$4658' with positive edge clock and positive level reset.
Creating register for signal `$paramod$20bf198c79fefe63fb33258281db4746901c4585\axi4lite_arbiter_top.$mem2reg_rd$\m_awprot$axi4lite_arbiter_top.sv:319$505_ADDR' using process `$paramod$20bf198c79fefe63fb33258281db4746901c4585\axi4lite_arbiter_top.$proc$axi4lite_arbiter_top.sv:302$521'.
  created $adff cell `$procdff$4663' with positive edge clock and positive level reset.
Creating register for signal `$paramod$20bf198c79fefe63fb33258281db4746901c4585\axi4lite_arbiter_top.$mem2reg_rd$\m_awprot$axi4lite_arbiter_top.sv:319$505_DATA' using process `$paramod$20bf198c79fefe63fb33258281db4746901c4585\axi4lite_arbiter_top.$proc$axi4lite_arbiter_top.sv:302$521'.
  created $adff cell `$procdff$4668' with positive edge clock and positive level reset.
Creating register for signal `\arbiter_formal.$past$arbiter_formal.sv:194$65$0' using process `\arbiter_formal.$proc$arbiter_formal.sv:191$449'.
  created $dff cell `$procdff$4669' with positive edge clock.
Creating register for signal `\arbiter_formal.$past$arbiter_formal.sv:194$66$0' using process `\arbiter_formal.$proc$arbiter_formal.sv:191$449'.
  created $dff cell `$procdff$4670' with positive edge clock.
Creating register for signal `\arbiter_formal.$past$arbiter_formal.sv:196$67$0' using process `\arbiter_formal.$proc$arbiter_formal.sv:191$449'.
  created $dff cell `$procdff$4671' with positive edge clock.
Creating register for signal `\arbiter_formal.$past$arbiter_formal.sv:200$68$0' using process `\arbiter_formal.$proc$arbiter_formal.sv:191$449'.
  created $dff cell `$procdff$4672' with positive edge clock.
Creating register for signal `\arbiter_formal.$past$arbiter_formal.sv:200$69$0' using process `\arbiter_formal.$proc$arbiter_formal.sv:191$449'.
  created $dff cell `$procdff$4673' with positive edge clock.
Creating register for signal `\arbiter_formal.$past$arbiter_formal.sv:202$70$0' using process `\arbiter_formal.$proc$arbiter_formal.sv:191$449'.
  created $dff cell `$procdff$4674' with positive edge clock.
Creating register for signal `\arbiter_formal.$past$arbiter_formal.sv:203$71$0' using process `\arbiter_formal.$proc$arbiter_formal.sv:191$449'.
  created $dff cell `$procdff$4675' with positive edge clock.
Creating register for signal `\arbiter_formal.$past$arbiter_formal.sv:207$72$0' using process `\arbiter_formal.$proc$arbiter_formal.sv:191$449'.
  created $dff cell `$procdff$4676' with positive edge clock.
Creating register for signal `\arbiter_formal.$past$arbiter_formal.sv:207$73$0' using process `\arbiter_formal.$proc$arbiter_formal.sv:191$449'.
  created $dff cell `$procdff$4677' with positive edge clock.
Creating register for signal `\arbiter_formal.$past$arbiter_formal.sv:207$74$0' using process `\arbiter_formal.$proc$arbiter_formal.sv:191$449'.
  created $dff cell `$procdff$4678' with positive edge clock.
Creating register for signal `\arbiter_formal.$past$arbiter_formal.sv:210$75$0' using process `\arbiter_formal.$proc$arbiter_formal.sv:191$449'.
  created $dff cell `$procdff$4679' with positive edge clock.
Creating register for signal `\arbiter_formal.$past$arbiter_formal.sv:210$76$0' using process `\arbiter_formal.$proc$arbiter_formal.sv:191$449'.
  created $dff cell `$procdff$4680' with positive edge clock.
Creating register for signal `\arbiter_formal.$past$arbiter_formal.sv:194$53$0' using process `\arbiter_formal.$proc$arbiter_formal.sv:191$411'.
  created $dff cell `$procdff$4681' with positive edge clock.
Creating register for signal `\arbiter_formal.$past$arbiter_formal.sv:194$54$0' using process `\arbiter_formal.$proc$arbiter_formal.sv:191$411'.
  created $dff cell `$procdff$4682' with positive edge clock.
Creating register for signal `\arbiter_formal.$past$arbiter_formal.sv:196$55$0' using process `\arbiter_formal.$proc$arbiter_formal.sv:191$411'.
  created $dff cell `$procdff$4683' with positive edge clock.
Creating register for signal `\arbiter_formal.$past$arbiter_formal.sv:200$56$0' using process `\arbiter_formal.$proc$arbiter_formal.sv:191$411'.
  created $dff cell `$procdff$4684' with positive edge clock.
Creating register for signal `\arbiter_formal.$past$arbiter_formal.sv:200$57$0' using process `\arbiter_formal.$proc$arbiter_formal.sv:191$411'.
  created $dff cell `$procdff$4685' with positive edge clock.
Creating register for signal `\arbiter_formal.$past$arbiter_formal.sv:202$58$0' using process `\arbiter_formal.$proc$arbiter_formal.sv:191$411'.
  created $dff cell `$procdff$4686' with positive edge clock.
Creating register for signal `\arbiter_formal.$past$arbiter_formal.sv:203$59$0' using process `\arbiter_formal.$proc$arbiter_formal.sv:191$411'.
  created $dff cell `$procdff$4687' with positive edge clock.
Creating register for signal `\arbiter_formal.$past$arbiter_formal.sv:207$60$0' using process `\arbiter_formal.$proc$arbiter_formal.sv:191$411'.
  created $dff cell `$procdff$4688' with positive edge clock.
Creating register for signal `\arbiter_formal.$past$arbiter_formal.sv:207$61$0' using process `\arbiter_formal.$proc$arbiter_formal.sv:191$411'.
  created $dff cell `$procdff$4689' with positive edge clock.
Creating register for signal `\arbiter_formal.$past$arbiter_formal.sv:207$62$0' using process `\arbiter_formal.$proc$arbiter_formal.sv:191$411'.
  created $dff cell `$procdff$4690' with positive edge clock.
Creating register for signal `\arbiter_formal.$past$arbiter_formal.sv:210$63$0' using process `\arbiter_formal.$proc$arbiter_formal.sv:191$411'.
  created $dff cell `$procdff$4691' with positive edge clock.
Creating register for signal `\arbiter_formal.$past$arbiter_formal.sv:210$64$0' using process `\arbiter_formal.$proc$arbiter_formal.sv:191$411'.
  created $dff cell `$procdff$4692' with positive edge clock.
Creating register for signal `\arbiter_formal.$past$arbiter_formal.sv:163$41$0' using process `\arbiter_formal.$proc$arbiter_formal.sv:160$376'.
  created $dff cell `$procdff$4693' with positive edge clock.
Creating register for signal `\arbiter_formal.$past$arbiter_formal.sv:163$42$0' using process `\arbiter_formal.$proc$arbiter_formal.sv:160$376'.
  created $dff cell `$procdff$4694' with positive edge clock.
Creating register for signal `\arbiter_formal.$past$arbiter_formal.sv:165$43$0' using process `\arbiter_formal.$proc$arbiter_formal.sv:160$376'.
  created $dff cell `$procdff$4695' with positive edge clock.
Creating register for signal `\arbiter_formal.$past$arbiter_formal.sv:166$44$0' using process `\arbiter_formal.$proc$arbiter_formal.sv:160$376'.
  created $dff cell `$procdff$4696' with positive edge clock.
Creating register for signal `\arbiter_formal.$past$arbiter_formal.sv:170$45$0' using process `\arbiter_formal.$proc$arbiter_formal.sv:160$376'.
  created $dff cell `$procdff$4697' with positive edge clock.
Creating register for signal `\arbiter_formal.$past$arbiter_formal.sv:170$46$0' using process `\arbiter_formal.$proc$arbiter_formal.sv:160$376'.
  created $dff cell `$procdff$4698' with positive edge clock.
Creating register for signal `\arbiter_formal.$past$arbiter_formal.sv:172$47$0' using process `\arbiter_formal.$proc$arbiter_formal.sv:160$376'.
  created $dff cell `$procdff$4699' with positive edge clock.
Creating register for signal `\arbiter_formal.$past$arbiter_formal.sv:173$48$0' using process `\arbiter_formal.$proc$arbiter_formal.sv:160$376'.
  created $dff cell `$procdff$4700' with positive edge clock.
Creating register for signal `\arbiter_formal.$past$arbiter_formal.sv:177$49$0' using process `\arbiter_formal.$proc$arbiter_formal.sv:160$376'.
  created $dff cell `$procdff$4701' with positive edge clock.
Creating register for signal `\arbiter_formal.$past$arbiter_formal.sv:177$50$0' using process `\arbiter_formal.$proc$arbiter_formal.sv:160$376'.
  created $dff cell `$procdff$4702' with positive edge clock.
Creating register for signal `\arbiter_formal.$past$arbiter_formal.sv:179$51$0' using process `\arbiter_formal.$proc$arbiter_formal.sv:160$376'.
  created $dff cell `$procdff$4703' with positive edge clock.
Creating register for signal `\arbiter_formal.$past$arbiter_formal.sv:180$52$0' using process `\arbiter_formal.$proc$arbiter_formal.sv:160$376'.
  created $dff cell `$procdff$4704' with positive edge clock.
Creating register for signal `\arbiter_formal.$past$arbiter_formal.sv:163$29$0' using process `\arbiter_formal.$proc$arbiter_formal.sv:160$341'.
  created $dff cell `$procdff$4705' with positive edge clock.
Creating register for signal `\arbiter_formal.$past$arbiter_formal.sv:163$30$0' using process `\arbiter_formal.$proc$arbiter_formal.sv:160$341'.
  created $dff cell `$procdff$4706' with positive edge clock.
Creating register for signal `\arbiter_formal.$past$arbiter_formal.sv:165$31$0' using process `\arbiter_formal.$proc$arbiter_formal.sv:160$341'.
  created $dff cell `$procdff$4707' with positive edge clock.
Creating register for signal `\arbiter_formal.$past$arbiter_formal.sv:166$32$0' using process `\arbiter_formal.$proc$arbiter_formal.sv:160$341'.
  created $dff cell `$procdff$4708' with positive edge clock.
Creating register for signal `\arbiter_formal.$past$arbiter_formal.sv:170$33$0' using process `\arbiter_formal.$proc$arbiter_formal.sv:160$341'.
  created $dff cell `$procdff$4709' with positive edge clock.
Creating register for signal `\arbiter_formal.$past$arbiter_formal.sv:170$34$0' using process `\arbiter_formal.$proc$arbiter_formal.sv:160$341'.
  created $dff cell `$procdff$4710' with positive edge clock.
Creating register for signal `\arbiter_formal.$past$arbiter_formal.sv:172$35$0' using process `\arbiter_formal.$proc$arbiter_formal.sv:160$341'.
  created $dff cell `$procdff$4711' with positive edge clock.
Creating register for signal `\arbiter_formal.$past$arbiter_formal.sv:173$36$0' using process `\arbiter_formal.$proc$arbiter_formal.sv:160$341'.
  created $dff cell `$procdff$4712' with positive edge clock.
Creating register for signal `\arbiter_formal.$past$arbiter_formal.sv:177$37$0' using process `\arbiter_formal.$proc$arbiter_formal.sv:160$341'.
  created $dff cell `$procdff$4713' with positive edge clock.
Creating register for signal `\arbiter_formal.$past$arbiter_formal.sv:177$38$0' using process `\arbiter_formal.$proc$arbiter_formal.sv:160$341'.
  created $dff cell `$procdff$4714' with positive edge clock.
Creating register for signal `\arbiter_formal.$past$arbiter_formal.sv:179$39$0' using process `\arbiter_formal.$proc$arbiter_formal.sv:160$341'.
  created $dff cell `$procdff$4715' with positive edge clock.
Creating register for signal `\arbiter_formal.$past$arbiter_formal.sv:180$40$0' using process `\arbiter_formal.$proc$arbiter_formal.sv:160$341'.
  created $dff cell `$procdff$4716' with positive edge clock.
Creating register for signal `\arbiter_formal.$past$arbiter_formal.sv:163$17$0' using process `\arbiter_formal.$proc$arbiter_formal.sv:160$306'.
  created $dff cell `$procdff$4717' with positive edge clock.
Creating register for signal `\arbiter_formal.$past$arbiter_formal.sv:163$18$0' using process `\arbiter_formal.$proc$arbiter_formal.sv:160$306'.
  created $dff cell `$procdff$4718' with positive edge clock.
Creating register for signal `\arbiter_formal.$past$arbiter_formal.sv:165$19$0' using process `\arbiter_formal.$proc$arbiter_formal.sv:160$306'.
  created $dff cell `$procdff$4719' with positive edge clock.
Creating register for signal `\arbiter_formal.$past$arbiter_formal.sv:166$20$0' using process `\arbiter_formal.$proc$arbiter_formal.sv:160$306'.
  created $dff cell `$procdff$4720' with positive edge clock.
Creating register for signal `\arbiter_formal.$past$arbiter_formal.sv:170$21$0' using process `\arbiter_formal.$proc$arbiter_formal.sv:160$306'.
  created $dff cell `$procdff$4721' with positive edge clock.
Creating register for signal `\arbiter_formal.$past$arbiter_formal.sv:170$22$0' using process `\arbiter_formal.$proc$arbiter_formal.sv:160$306'.
  created $dff cell `$procdff$4722' with positive edge clock.
Creating register for signal `\arbiter_formal.$past$arbiter_formal.sv:172$23$0' using process `\arbiter_formal.$proc$arbiter_formal.sv:160$306'.
  created $dff cell `$procdff$4723' with positive edge clock.
Creating register for signal `\arbiter_formal.$past$arbiter_formal.sv:173$24$0' using process `\arbiter_formal.$proc$arbiter_formal.sv:160$306'.
  created $dff cell `$procdff$4724' with positive edge clock.
Creating register for signal `\arbiter_formal.$past$arbiter_formal.sv:177$25$0' using process `\arbiter_formal.$proc$arbiter_formal.sv:160$306'.
  created $dff cell `$procdff$4725' with positive edge clock.
Creating register for signal `\arbiter_formal.$past$arbiter_formal.sv:177$26$0' using process `\arbiter_formal.$proc$arbiter_formal.sv:160$306'.
  created $dff cell `$procdff$4726' with positive edge clock.
Creating register for signal `\arbiter_formal.$past$arbiter_formal.sv:179$27$0' using process `\arbiter_formal.$proc$arbiter_formal.sv:160$306'.
  created $dff cell `$procdff$4727' with positive edge clock.
Creating register for signal `\arbiter_formal.$past$arbiter_formal.sv:180$28$0' using process `\arbiter_formal.$proc$arbiter_formal.sv:160$306'.
  created $dff cell `$procdff$4728' with positive edge clock.
Creating register for signal `\arbiter_formal.$past$arbiter_formal.sv:163$5$0' using process `\arbiter_formal.$proc$arbiter_formal.sv:160$271'.
  created $dff cell `$procdff$4729' with positive edge clock.
Creating register for signal `\arbiter_formal.$past$arbiter_formal.sv:163$6$0' using process `\arbiter_formal.$proc$arbiter_formal.sv:160$271'.
  created $dff cell `$procdff$4730' with positive edge clock.
Creating register for signal `\arbiter_formal.$past$arbiter_formal.sv:165$7$0' using process `\arbiter_formal.$proc$arbiter_formal.sv:160$271'.
  created $dff cell `$procdff$4731' with positive edge clock.
Creating register for signal `\arbiter_formal.$past$arbiter_formal.sv:166$8$0' using process `\arbiter_formal.$proc$arbiter_formal.sv:160$271'.
  created $dff cell `$procdff$4732' with positive edge clock.
Creating register for signal `\arbiter_formal.$past$arbiter_formal.sv:170$9$0' using process `\arbiter_formal.$proc$arbiter_formal.sv:160$271'.
  created $dff cell `$procdff$4733' with positive edge clock.
Creating register for signal `\arbiter_formal.$past$arbiter_formal.sv:170$10$0' using process `\arbiter_formal.$proc$arbiter_formal.sv:160$271'.
  created $dff cell `$procdff$4734' with positive edge clock.
Creating register for signal `\arbiter_formal.$past$arbiter_formal.sv:172$11$0' using process `\arbiter_formal.$proc$arbiter_formal.sv:160$271'.
  created $dff cell `$procdff$4735' with positive edge clock.
Creating register for signal `\arbiter_formal.$past$arbiter_formal.sv:173$12$0' using process `\arbiter_formal.$proc$arbiter_formal.sv:160$271'.
  created $dff cell `$procdff$4736' with positive edge clock.
Creating register for signal `\arbiter_formal.$past$arbiter_formal.sv:177$13$0' using process `\arbiter_formal.$proc$arbiter_formal.sv:160$271'.
  created $dff cell `$procdff$4737' with positive edge clock.
Creating register for signal `\arbiter_formal.$past$arbiter_formal.sv:177$14$0' using process `\arbiter_formal.$proc$arbiter_formal.sv:160$271'.
  created $dff cell `$procdff$4738' with positive edge clock.
Creating register for signal `\arbiter_formal.$past$arbiter_formal.sv:179$15$0' using process `\arbiter_formal.$proc$arbiter_formal.sv:160$271'.
  created $dff cell `$procdff$4739' with positive edge clock.
Creating register for signal `\arbiter_formal.$past$arbiter_formal.sv:180$16$0' using process `\arbiter_formal.$proc$arbiter_formal.sv:160$271'.
  created $dff cell `$procdff$4740' with positive edge clock.
Creating register for signal `\arbiter_formal.\f_reset_count' using process `\arbiter_formal.$proc$arbiter_formal.sv:134$77'.
  created $dff cell `$procdff$4741' with positive edge clock.

5.3.10. Executing PROC_MEMWR pass (convert process memory writes to cells).

5.3.11. Executing PROC_CLEAN pass (remove empty switches from decision trees).
Found and cleaned up 2 empty switches in `$paramod$508cca98229eff1b70362476b43647777eac3ce1\qos_arbiter.$proc$qos_arbiter.sv:0$887'.
Removing empty process `$paramod$508cca98229eff1b70362476b43647777eac3ce1\qos_arbiter.$proc$qos_arbiter.sv:0$887'.
Found and cleaned up 11 empty switches in `$paramod$508cca98229eff1b70362476b43647777eac3ce1\qos_arbiter.$proc$qos_arbiter.sv:179$869'.
Removing empty process `$paramod$508cca98229eff1b70362476b43647777eac3ce1\qos_arbiter.$proc$qos_arbiter.sv:179$869'.
Found and cleaned up 24 empty switches in `$paramod$508cca98229eff1b70362476b43647777eac3ce1\qos_arbiter.$proc$qos_arbiter.sv:0$847'.
Removing empty process `$paramod$508cca98229eff1b70362476b43647777eac3ce1\qos_arbiter.$proc$qos_arbiter.sv:0$847'.
Found and cleaned up 6 empty switches in `$paramod$508cca98229eff1b70362476b43647777eac3ce1\qos_arbiter.$proc$qos_arbiter.sv:0$838'.
Removing empty process `$paramod$508cca98229eff1b70362476b43647777eac3ce1\qos_arbiter.$proc$qos_arbiter.sv:0$838'.
Found and cleaned up 4 empty switches in `$paramod$59f66e305bd3b47082af7a1e20206251db0b33b5\addr_decoder.$proc$addr_decoder.sv:0$825'.
Removing empty process `$paramod$59f66e305bd3b47082af7a1e20206251db0b33b5\addr_decoder.$proc$addr_decoder.sv:0$825'.
Removing empty process `$paramod$20bf198c79fefe63fb33258281db4746901c4585\axi4lite_arbiter_top.$proc$axi4lite_arbiter_top.sv:0$824'.
Found and cleaned up 13 empty switches in `$paramod$20bf198c79fefe63fb33258281db4746901c4585\axi4lite_arbiter_top.$proc$axi4lite_arbiter_top.sv:0$708'.
Removing empty process `$paramod$20bf198c79fefe63fb33258281db4746901c4585\axi4lite_arbiter_top.$proc$axi4lite_arbiter_top.sv:0$708'.
Found and cleaned up 10 empty switches in `$paramod$20bf198c79fefe63fb33258281db4746901c4585\axi4lite_arbiter_top.$proc$axi4lite_arbiter_top.sv:578$679'.
Removing empty process `$paramod$20bf198c79fefe63fb33258281db4746901c4585\axi4lite_arbiter_top.$proc$axi4lite_arbiter_top.sv:578$679'.
Found and cleaned up 1 empty switch in `$paramod$20bf198c79fefe63fb33258281db4746901c4585\axi4lite_arbiter_top.$proc$axi4lite_arbiter_top.sv:0$678'.
Removing empty process `$paramod$20bf198c79fefe63fb33258281db4746901c4585\axi4lite_arbiter_top.$proc$axi4lite_arbiter_top.sv:0$678'.
Found and cleaned up 2 empty switches in `$paramod$20bf198c79fefe63fb33258281db4746901c4585\axi4lite_arbiter_top.$proc$axi4lite_arbiter_top.sv:0$677'.
