
 /----------------------------------------------------------------------------\
 |  yosys -- Yosys Open SYnthesis Suite                                       |
 |  Copyright (C) 2012 - 2025  Claire Xenia Wolf <claire@yosyshq.com>         |
 |  Distributed under an ISC-like license, type "license" to see terms        |
 \----------------------------------------------------------------------------/
 Yosys 0.52 (git sha1 fee39a3284c90249e1d9684cf6944ffbbcbb8f90)

-- Executing script file `../model/design.ys' --

1. Executing Verilog-2005 frontend: addr_decoder.sv
Parsing formal SystemVerilog input from `addr_decoder.sv' to AST representation.
Storing AST representation for module `$abstract\addr_decoder'.
Successfully finished Verilog frontend.

2. Executing Verilog-2005 frontend: qos_arbiter.sv
Parsing formal SystemVerilog input from `qos_arbiter.sv' to AST representation.
Storing AST representation for module `$abstract\qos_arbiter'.
Successfully finished Verilog frontend.

3. Executing Verilog-2005 frontend: axi4lite_arbiter_top.sv
Parsing formal SystemVerilog input from `axi4lite_arbiter_top.sv' to AST representation.
Storing AST representation for module `$abstract\axi4lite_arbiter_top'.
Successfully finished Verilog frontend.

4. Executing Verilog-2005 frontend: arbiter_formal.sv
Parsing formal SystemVerilog input from `arbiter_formal.sv' to AST representation.
Storing AST representation for module `$abstract\arbiter_formal'.
Successfully finished Verilog frontend.

5. Executing PREP pass.

5.1. Executing HIERARCHY pass (managing design hierarchy).

5.2. Executing AST frontend in derive mode using pre-parsed AST for module `\arbiter_formal'.
Generating RTLIL representation for module `\arbiter_formal'.
arbiter_formal.sv:284: Warning: Identifier `\dut.w_state' is implicitly declared.
arbiter_formal.sv:285: Warning: Identifier `\dut.w_owner_m_id' is implicitly declared.
arbiter_formal.sv:293: Warning: Identifier `\dut.r_state' is implicitly declared.
arbiter_formal.sv:294: Warning: Identifier `\dut.r_owner_m_id' is implicitly declared.
arbiter_formal.sv:306: Warning: Identifier `\dut.write_arb_tx_done' is implicitly declared.
arbiter_formal.sv:315: Warning: Identifier `\dut.read_arb_tx_done' is implicitly declared.
arbiter_formal.sv:328: Warning: Identifier `\dut.w_target_invalid' is implicitly declared.
arbiter_formal.sv:339: Warning: Identifier `\dut.r_target_invalid' is implicitly declared.

5.2.1. Analyzing design hierarchy..
Top module:  \arbiter_formal
Parameter \NUM_MASTERS = 4
Parameter \NUM_SLAVES = 2
Parameter \ADDR_WIDTH = 32
Parameter \DATA_WIDTH = 32
Parameter \M0_WEIGHT = 1
Parameter \M1_WEIGHT = 3
Parameter \M2_WEIGHT = 2
Parameter \M3_WEIGHT = 1
Parameter \AGE_THRESHOLD = 64
Parameter \SLAVE0_BASE = 0
Parameter \SLAVE0_SIZE = 65536
Parameter \SLAVE1_BASE = 65536
Parameter \SLAVE1_SIZE = 65536

5.2.2. Executing AST frontend in derive mode using pre-parsed AST for module `\axi4lite_arbiter_top'.
Parameter \NUM_MASTERS = 4
Parameter \NUM_SLAVES = 2
Parameter \ADDR_WIDTH = 32
Parameter \DATA_WIDTH = 32
Parameter \M0_WEIGHT = 1
Parameter \M1_WEIGHT = 3
Parameter \M2_WEIGHT = 2
Parameter \M3_WEIGHT = 1
Parameter \AGE_THRESHOLD = 64
Parameter \SLAVE0_BASE = 0
Parameter \SLAVE0_SIZE = 65536
Parameter \SLAVE1_BASE = 65536
Parameter \SLAVE1_SIZE = 65536
Generating RTLIL representation for module `$paramod$20bf198c79fefe63fb33258281db4746901c4585\axi4lite_arbiter_top'.
Warning: Replacing memory \r_rresp_demux with list of registers. See axi4lite_arbiter_top.sv:653
Warning: Replacing memory \r_rdata_demux with list of registers. See axi4lite_arbiter_top.sv:652
Warning: Replacing memory \w_bresp_demux with list of registers. See axi4lite_arbiter_top.sv:387

5.2.3. Analyzing design hierarchy..
Top module:  \arbiter_formal
Used module:     $paramod$20bf198c79fefe63fb33258281db4746901c4585\axi4lite_arbiter_top
Parameter \ADDR_WIDTH = 32
Parameter \SLAVE0_BASE = 0
Parameter \SLAVE0_SIZE = 65536
Parameter \SLAVE1_BASE = 65536
Parameter \SLAVE1_SIZE = 65536

5.2.4. Executing AST frontend in derive mode using pre-parsed AST for module `\addr_decoder'.
Parameter \ADDR_WIDTH = 32
Parameter \SLAVE0_BASE = 0
Parameter \SLAVE0_SIZE = 65536
Parameter \SLAVE1_BASE = 65536
Parameter \SLAVE1_SIZE = 65536
Generating RTLIL representation for module `$paramod$59f66e305bd3b47082af7a1e20206251db0b33b5\addr_decoder'.
Parameter \NUM_MASTERS = 4
Parameter \M0_WEIGHT = 1
Parameter \M1_WEIGHT = 3
Parameter \M2_WEIGHT = 2
Parameter \M3_WEIGHT = 1
Parameter \AGE_THRESHOLD = 64

5.2.5. Executing AST frontend in derive mode using pre-parsed AST for module `\qos_arbiter'.
Parameter \NUM_MASTERS = 4
Parameter \M0_WEIGHT = 1
Parameter \M1_WEIGHT = 3
Parameter \M2_WEIGHT = 2
Parameter \M3_WEIGHT = 1
Parameter \AGE_THRESHOLD = 64
Generating RTLIL representation for module `$paramod$508cca98229eff1b70362476b43647777eac3ce1\qos_arbiter'.
Parameter \ADDR_WIDTH = 32
Parameter \SLAVE0_BASE = 0
Parameter \SLAVE0_SIZE = 65536
Parameter \SLAVE1_BASE = 65536
Parameter \SLAVE1_SIZE = 65536
Found cached RTLIL representation for module `$paramod$59f66e305bd3b47082af7a1e20206251db0b33b5\addr_decoder'.
Parameter \NUM_MASTERS = 4
Parameter \M0_WEIGHT = 1
Parameter \M1_WEIGHT = 3
Parameter \M2_WEIGHT = 2
Parameter \M3_WEIGHT = 1
Parameter \AGE_THRESHOLD = 64
Found cached RTLIL representation for module `$paramod$508cca98229eff1b70362476b43647777eac3ce1\qos_arbiter'.

5.2.6. Analyzing design hierarchy..
Top module:  \arbiter_formal
Used module:     $paramod$20bf198c79fefe63fb33258281db4746901c4585\axi4lite_arbiter_top
Used module:         $paramod$59f66e305bd3b47082af7a1e20206251db0b33b5\addr_decoder
Used module:         $paramod$508cca98229eff1b70362476b43647777eac3ce1\qos_arbiter

5.2.7. Analyzing design hierarchy..
Top module:  \arbiter_formal
Used module:     $paramod$20bf198c79fefe63fb33258281db4746901c4585\axi4lite_arbiter_top
Used module:         $paramod$59f66e305bd3b47082af7a1e20206251db0b33b5\addr_decoder
Used module:         $paramod$508cca98229eff1b70362476b43647777eac3ce1\qos_arbiter
Removing unused module `$abstract\arbiter_formal'.
Removing unused module `$abstract\axi4lite_arbiter_top'.
Removing unused module `$abstract\qos_arbiter'.
Removing unused module `$abstract\addr_decoder'.
Removed 4 unused modules.
Module arbiter_formal directly or indirectly contains formal properties -> setting "keep" attribute.

5.3. Executing PROC pass (convert processes to netlists).

5.3.1. Executing PROC_CLEAN pass (remove empty switches from decision trees).
Found and cleaned up 2 empty switches in `$paramod$20bf198c79fefe63fb33258281db4746901c4585\axi4lite_arbiter_top.$proc$axi4lite_arbiter_top.sv:0$883'.
Removing empty process `$paramod$20bf198c79fefe63fb33258281db4746901c4585\axi4lite_arbiter_top.$proc$axi4lite_arbiter_top.sv:0$883'.
Cleaned up 2 empty switches.

5.3.2. Executing PROC_RMDEAD pass (remove dead branches from decision trees).
Marked 2 switch rules as full_case in process $proc$qos_arbiter.sv:0$943 in module $paramod$508cca98229eff1b70362476b43647777eac3ce1\qos_arbiter.
Marked 4 switch rules as full_case in process $proc$qos_arbiter.sv:179$928 in module $paramod$508cca98229eff1b70362476b43647777eac3ce1\qos_arbiter.
Marked 24 switch rules as full_case in process $proc$qos_arbiter.sv:0$906 in module $paramod$508cca98229eff1b70362476b43647777eac3ce1\qos_arbiter.
Marked 6 switch rules as full_case in process $proc$qos_arbiter.sv:0$897 in module $paramod$508cca98229eff1b70362476b43647777eac3ce1\qos_arbiter.
Marked 4 switch rules as full_case in process $proc$addr_decoder.sv:0$884 in module $paramod$59f66e305bd3b47082af7a1e20206251db0b33b5\addr_decoder.
Removed 6 dead cases from process $proc$axi4lite_arbiter_top.sv:0$766 in module $paramod$20bf198c79fefe63fb33258281db4746901c4585\axi4lite_arbiter_top.
Marked 13 switch rules as full_case in process $proc$axi4lite_arbiter_top.sv:0$766 in module $paramod$20bf198c79fefe63fb33258281db4746901c4585\axi4lite_arbiter_top.
Removed 3 dead cases from process $proc$axi4lite_arbiter_top.sv:589$737 in module $paramod$20bf198c79fefe63fb33258281db4746901c4585\axi4lite_arbiter_top.
Marked 8 switch rules as full_case in process $proc$axi4lite_arbiter_top.sv:589$737 in module $paramod$20bf198c79fefe63fb33258281db4746901c4585\axi4lite_arbiter_top.
Removed 1 dead cases from process $proc$axi4lite_arbiter_top.sv:0$736 in module $paramod$20bf198c79fefe63fb33258281db4746901c4585\axi4lite_arbiter_top.
Marked 1 switch rules as full_case in process $proc$axi4lite_arbiter_top.sv:0$736 in module $paramod$20bf198c79fefe63fb33258281db4746901c4585\axi4lite_arbiter_top.
Marked 2 switch rules as full_case in process $proc$axi4lite_arbiter_top.sv:0$735 in module $paramod$20bf198c79fefe63fb33258281db4746901c4585\axi4lite_arbiter_top.
Removed 1 dead cases from process $proc$axi4lite_arbiter_top.sv:0$734 in module $paramod$20bf198c79fefe63fb33258281db4746901c4585\axi4lite_arbiter_top.
Marked 1 switch rules as full_case in process $proc$axi4lite_arbiter_top.sv:0$734 in module $paramod$20bf198c79fefe63fb33258281db4746901c4585\axi4lite_arbiter_top.
Removed 4 dead cases from process $proc$axi4lite_arbiter_top.sv:0$609 in module $paramod$20bf198c79fefe63fb33258281db4746901c4585\axi4lite_arbiter_top.
Marked 13 switch rules as full_case in process $proc$axi4lite_arbiter_top.sv:0$609 in module $paramod$20bf198c79fefe63fb33258281db4746901c4585\axi4lite_arbiter_top.
Removed 4 dead cases from process $proc$axi4lite_arbiter_top.sv:313$579 in module $paramod$20bf198c79fefe63fb33258281db4746901c4585\axi4lite_arbiter_top.
Marked 9 switch rules as full_case in process $proc$axi4lite_arbiter_top.sv:313$579 in module $paramod$20bf198c79fefe63fb33258281db4746901c4585\axi4lite_arbiter_top.
Removed 1 dead cases from process $proc$axi4lite_arbiter_top.sv:0$578 in module $paramod$20bf198c79fefe63fb33258281db4746901c4585\axi4lite_arbiter_top.
Marked 1 switch rules as full_case in process $proc$axi4lite_arbiter_top.sv:0$578 in module $paramod$20bf198c79fefe63fb33258281db4746901c4585\axi4lite_arbiter_top.
Marked 2 switch rules as full_case in process $proc$axi4lite_arbiter_top.sv:0$577 in module $paramod$20bf198c79fefe63fb33258281db4746901c4585\axi4lite_arbiter_top.
Removed 1 dead cases from process $proc$axi4lite_arbiter_top.sv:0$576 in module $paramod$20bf198c79fefe63fb33258281db4746901c4585\axi4lite_arbiter_top.
Marked 1 switch rules as full_case in process $proc$axi4lite_arbiter_top.sv:0$576 in module $paramod$20bf198c79fefe63fb33258281db4746901c4585\axi4lite_arbiter_top.
Marked 1 switch rules as full_case in process $proc$arbiter_formal.sv:143$87 in module arbiter_formal.
Marked 1 switch rules as full_case in process $proc$arbiter_formal.sv:134$83 in module arbiter_formal.
Removed a total of 21 dead cases.

5.3.3. Executing PROC_PRUNE pass (remove redundant assignments in processes).
Removed 2 redundant assignments.
Promoted 226 assignments to connections.

5.3.4. Executing PROC_INIT pass (extract init attributes).
Found init rule in `\arbiter_formal.$proc$arbiter_formal.sv:133$545'.
  Set init value: \f_reset_count = 3'000

5.3.5. Executing PROC_ARST pass (detect async resets in processes).
Found async reset \aresetn in `$paramod$508cca98229eff1b70362476b43647777eac3ce1\qos_arbiter.$proc$qos_arbiter.sv:179$928'.
Found async reset \aresetn in `$paramod$20bf198c79fefe63fb33258281db4746901c4585\axi4lite_arbiter_top.$proc$axi4lite_arbiter_top.sv:589$737'.
Found async reset \aresetn in `$paramod$20bf198c79fefe63fb33258281db4746901c4585\axi4lite_arbiter_top.$proc$axi4lite_arbiter_top.sv:313$579'.

5.3.6. Executing PROC_ROM pass (convert switches to ROMs).
Converted 0 switches.
<suppressed ~151 debug messages>

5.3.7. Executing PROC_MUX pass (convert decision trees to multiplexers).
Creating decoders for process `$paramod$508cca98229eff1b70362476b43647777eac3ce1\qos_arbiter.$proc$qos_arbiter.sv:0$943'.
     1/9: $2\grant_valid[0:0]
     2/9: $2\master_id[1:0]
     3/9: $2\grant[3:0]
     4/9: $2$bitselwrite$pos$qos_arbiter.sv:257$894[1:0]$955
     5/9: $1\grant_valid[0:0]
     6/9: $1\master_id[1:0]
     7/9: $1\grant[3:0]
     8/9: $1$bitselwrite$pos$qos_arbiter.sv:253$893[1:0]$946
     9/9: $1$bitselwrite$pos$qos_arbiter.sv:257$894[1:0]$947
Creating decoders for process `$paramod$508cca98229eff1b70362476b43647777eac3ce1\qos_arbiter.$proc$qos_arbiter.sv:179$928'.
     1/8: $0\age_counter[31:0]
     2/8: $0\rr_ptr[1:0]
     3/8: $0\quota_3[31:0]
     4/8: $0\quota_2[31:0]
     5/8: $0\quota_1[31:0]
     6/8: $0\is_active[0:0]
     7/8: $0\current_master[1:0]
     8/8: $0\starvation_flag[0:0]
Creating decoders for process `$paramod$508cca98229eff1b70362476b43647777eac3ce1\qos_arbiter.$proc$qos_arbiter.sv:0$906'.
     1/48: $24\cand_valid[0:0]
     2/48: $24\next_cand[1:0]
     3/48: $23\cand_valid[0:0]
     4/48: $23\next_cand[1:0]
     5/48: $22\cand_valid[0:0]
     6/48: $22\next_cand[1:0]
     7/48: $21\cand_valid[0:0]
     8/48: $21\next_cand[1:0]
     9/48: $20\cand_valid[0:0]
    10/48: $20\next_cand[1:0]
    11/48: $19\cand_valid[0:0]
    12/48: $19\next_cand[1:0]
    13/48: $18\cand_valid[0:0]
    14/48: $18\next_cand[1:0]
    15/48: $17\cand_valid[0:0]
    16/48: $17\next_cand[1:0]
    17/48: $16\cand_valid[0:0]
    18/48: $16\next_cand[1:0]
    19/48: $15\cand_valid[0:0]
    20/48: $15\next_cand[1:0]
    21/48: $14\cand_valid[0:0]
    22/48: $14\next_cand[1:0]
    23/48: $13\cand_valid[0:0]
    24/48: $13\next_cand[1:0]
    25/48: $12\cand_valid[0:0]
    26/48: $12\next_cand[1:0]
    27/48: $11\cand_valid[0:0]
    28/48: $11\next_cand[1:0]
    29/48: $10\cand_valid[0:0]
    30/48: $10\next_cand[1:0]
    31/48: $9\cand_valid[0:0]
    32/48: $9\next_cand[1:0]
    33/48: $8\cand_valid[0:0]
    34/48: $8\next_cand[1:0]
    35/48: $7\cand_valid[0:0]
    36/48: $7\next_cand[1:0]
    37/48: $6\cand_valid[0:0]
    38/48: $6\next_cand[1:0]
    39/48: $5\cand_valid[0:0]
    40/48: $5\next_cand[1:0]
    41/48: $4\cand_valid[0:0]
    42/48: $4\next_cand[1:0]
    43/48: $3\cand_valid[0:0]
    44/48: $3\next_cand[1:0]
    45/48: $2\cand_valid[0:0]
    46/48: $2\next_cand[1:0]
    47/48: $1\cand_valid[0:0]
    48/48: $1\next_cand[1:0]
Creating decoders for process `$paramod$508cca98229eff1b70362476b43647777eac3ce1\qos_arbiter.$proc$qos_arbiter.sv:0$897'.
     1/16: $3\eff_q3[31:0]
     2/16: $5\eff_rr_ptr[1:0]
     3/16: $3\eff_q2[31:0]
     4/16: $4\eff_rr_ptr[1:0]
     5/16: $3\eff_q1[31:0]
     6/16: $3\eff_rr_ptr[1:0]
     7/16: $2\eff_rr_ptr[1:0]
     8/16: $2\eff_q1[31:0]
     9/16: $2\eff_q3[31:0]
    10/16: $2\eff_q2[31:0]
    11/16: $2\eff_starvation[0:0]
    12/16: $1\eff_rr_ptr[1:0]
    13/16: $1\eff_q3[31:0]
    14/16: $1\eff_q2[31:0]
    15/16: $1\eff_q1[31:0]
    16/16: $1\eff_starvation[0:0]
Creating decoders for process `$paramod$59f66e305bd3b47082af7a1e20206251db0b33b5\addr_decoder.$proc$addr_decoder.sv:0$884'.
     1/8: $2\invalid_addr[0:0]
     2/8: $2\valid_addr[0:0]
     3/8: $2\slave_sel[1:0]
     4/8: $1\invalid_addr[0:0]
     5/8: $1\valid_addr[0:0]
     6/8: $1\slave_sel[1:0]
     7/8: $1\match_s1[0:0]
     8/8: $1\match_s0[0:0]
Creating decoders for process `$paramod$20bf198c79fefe63fb33258281db4746901c4585\axi4lite_arbiter_top.$proc$axi4lite_arbiter_top.sv:0$882'.
Creating decoders for process `$paramod$20bf198c79fefe63fb33258281db4746901c4585\axi4lite_arbiter_top.$proc$axi4lite_arbiter_top.sv:0$766'.
     1/132: $7\r_rresp_demux[0][1:0]
     2/132: $7\r_rresp_demux[3][1:0]
     3/132: $7\r_rresp_demux[2][1:0]
     4/132: $7\r_rresp_demux[1][1:0]
     5/132: $7\r_rdata_demux[0][31:0]
     6/132: $7\r_rdata_demux[3][31:0]
     7/132: $7\r_rdata_demux[2][31:0]
     8/132: $7\r_rdata_demux[1][31:0]
     9/132: $4\s1_rready_mux[0:0]
    10/132: $6\r_rresp_demux[3][1:0]
    11/132: $6\r_rresp_demux[2][1:0]
    12/132: $6\r_rresp_demux[1][1:0]
    13/132: $6\r_rresp_demux[0][1:0]
    14/132: $4$mem2reg_wr$\r_rresp_demux$axi4lite_arbiter_top.sv:693$575_ADDR[1:0]$873
    15/132: $4$mem2reg_wr$\r_rresp_demux$axi4lite_arbiter_top.sv:693$575_DATA[1:0]$874
    16/132: $6\r_rdata_demux[3][31:0]
    17/132: $6\r_rdata_demux[2][31:0]
    18/132: $6\r_rdata_demux[1][31:0]
    19/132: $6\r_rdata_demux[0][31:0]
    20/132: $4$mem2reg_wr$\r_rdata_demux$axi4lite_arbiter_top.sv:692$574_ADDR[1:0]$871
    21/132: $4$mem2reg_wr$\r_rdata_demux$axi4lite_arbiter_top.sv:692$574_DATA[31:0]$872
    22/132: $4\r_rvalid_demux[3:0]
    23/132: $4$bitselwrite$pos$axi4lite_arbiter_top.sv:691$560[1:0]$870
    24/132: $5\r_rresp_demux[0][1:0]
    25/132: $5\r_rresp_demux[3][1:0]
    26/132: $5\r_rresp_demux[2][1:0]
    27/132: $5\r_rresp_demux[1][1:0]
    28/132: $5\r_rdata_demux[0][31:0]
    29/132: $5\r_rdata_demux[3][31:0]
    30/132: $5\r_rdata_demux[2][31:0]
    31/132: $5\r_rdata_demux[1][31:0]
    32/132: $3\s0_rready_mux[0:0]
    33/132: $4\r_rresp_demux[3][1:0]
    34/132: $4\r_rresp_demux[2][1:0]
    35/132: $4\r_rresp_demux[1][1:0]
    36/132: $4\r_rresp_demux[0][1:0]
    37/132: $3$mem2reg_wr$\r_rresp_demux$axi4lite_arbiter_top.sv:688$573_ADDR[1:0]$857
    38/132: $3$mem2reg_wr$\r_rresp_demux$axi4lite_arbiter_top.sv:688$573_DATA[1:0]$858
    39/132: $4\r_rdata_demux[3][31:0]
    40/132: $4\r_rdata_demux[2][31:0]
    41/132: $4\r_rdata_demux[1][31:0]
    42/132: $4\r_rdata_demux[0][31:0]
    43/132: $3$mem2reg_wr$\r_rdata_demux$axi4lite_arbiter_top.sv:687$572_ADDR[1:0]$855
    44/132: $3$mem2reg_wr$\r_rdata_demux$axi4lite_arbiter_top.sv:687$572_DATA[31:0]$856
    45/132: $3\r_rvalid_demux[3:0]
    46/132: $3$bitselwrite$pos$axi4lite_arbiter_top.sv:686$559[1:0]$853
    47/132: $3$mem2reg_wr$\r_rresp_demux$axi4lite_arbiter_top.sv:693$575_DATA[1:0]$862
    48/132: $3$mem2reg_wr$\r_rresp_demux$axi4lite_arbiter_top.sv:693$575_ADDR[1:0]$861
    49/132: $3$mem2reg_wr$\r_rdata_demux$axi4lite_arbiter_top.sv:692$574_DATA[31:0]$860
    50/132: $3$mem2reg_wr$\r_rdata_demux$axi4lite_arbiter_top.sv:692$574_ADDR[1:0]$859
    51/132: $3$bitselwrite$pos$axi4lite_arbiter_top.sv:691$560[1:0]$854
    52/132: $3\s1_rready_mux[0:0]
    53/132: $3\r_rresp_demux[0][1:0]
    54/132: $3\r_rresp_demux[3][1:0]
    55/132: $3\r_rresp_demux[2][1:0]
    56/132: $3\r_rresp_demux[1][1:0]
    57/132: $3\r_rdata_demux[0][31:0]
    58/132: $3\r_rdata_demux[3][31:0]
    59/132: $3\r_rdata_demux[2][31:0]
    60/132: $3\r_rdata_demux[1][31:0]
    61/132: $2\r_rresp_demux[3][1:0]
    62/132: $2\r_rresp_demux[2][1:0]
    63/132: $2\r_rresp_demux[1][1:0]
    64/132: $2\r_rresp_demux[0][1:0]
    65/132: $2$mem2reg_wr$\r_rresp_demux$axi4lite_arbiter_top.sv:683$571_ADDR[1:0]$836
    66/132: $2$mem2reg_wr$\r_rresp_demux$axi4lite_arbiter_top.sv:683$571_DATA[1:0]$837
    67/132: $2\r_rdata_demux[3][31:0]
    68/132: $2\r_rdata_demux[2][31:0]
    69/132: $2\r_rdata_demux[1][31:0]
    70/132: $2\r_rdata_demux[0][31:0]
    71/132: $2$mem2reg_wr$\r_rdata_demux$axi4lite_arbiter_top.sv:682$570_ADDR[1:0]$834
    72/132: $2$mem2reg_wr$\r_rdata_demux$axi4lite_arbiter_top.sv:682$570_DATA[31:0]$835
    73/132: $2\r_rvalid_demux[3:0]
    74/132: $2$bitselwrite$pos$axi4lite_arbiter_top.sv:681$558[1:0]$831
    75/132: $2$mem2reg_wr$\r_rresp_demux$axi4lite_arbiter_top.sv:693$575_DATA[1:0]$845
    76/132: $2$mem2reg_wr$\r_rresp_demux$axi4lite_arbiter_top.sv:693$575_ADDR[1:0]$844
    77/132: $2$mem2reg_wr$\r_rdata_demux$axi4lite_arbiter_top.sv:692$574_DATA[31:0]$843
    78/132: $2$mem2reg_wr$\r_rdata_demux$axi4lite_arbiter_top.sv:692$574_ADDR[1:0]$842
    79/132: $2$mem2reg_wr$\r_rresp_demux$axi4lite_arbiter_top.sv:688$573_DATA[1:0]$841
    80/132: $2$mem2reg_wr$\r_rresp_demux$axi4lite_arbiter_top.sv:688$573_ADDR[1:0]$840
    81/132: $2$mem2reg_wr$\r_rdata_demux$axi4lite_arbiter_top.sv:687$572_DATA[31:0]$839
    82/132: $2$mem2reg_wr$\r_rdata_demux$axi4lite_arbiter_top.sv:687$572_ADDR[1:0]$838
    83/132: $2$bitselwrite$pos$axi4lite_arbiter_top.sv:691$560[1:0]$833
    84/132: $2$bitselwrite$pos$axi4lite_arbiter_top.sv:686$559[1:0]$832
    85/132: $2\s1_rready_mux[0:0]
    86/132: $2\s0_rready_mux[0:0]
    87/132: $4\r_arready_demux[3:0]
    88/132: $4$bitselwrite$pos$axi4lite_arbiter_top.sv:674$557[1:0]$823
    89/132: $4\s1_arvalid_mux[0:0]
    90/132: $3\r_arready_demux[3:0]
    91/132: $3$bitselwrite$pos$axi4lite_arbiter_top.sv:671$556[1:0]$814
    92/132: $3\s0_arvalid_mux[0:0]
    93/132: $3$bitselwrite$pos$axi4lite_arbiter_top.sv:674$557[1:0]$815
    94/132: $3\s1_arvalid_mux[0:0]
    95/132: $2\r_arready_demux[3:0]
    96/132: $2$bitselwrite$pos$axi4lite_arbiter_top.sv:667$555[1:0]$804
    97/132: $2$bitselwrite$pos$axi4lite_arbiter_top.sv:674$557[1:0]$806
    98/132: $2$bitselwrite$pos$axi4lite_arbiter_top.sv:671$556[1:0]$805
    99/132: $2\s1_arvalid_mux[0:0]
   100/132: $2\s0_arvalid_mux[0:0]
   101/132: $1$mem2reg_wr$\r_rresp_demux$axi4lite_arbiter_top.sv:693$575_DATA[1:0]$803
   102/132: $1$mem2reg_wr$\r_rresp_demux$axi4lite_arbiter_top.sv:693$575_ADDR[1:0]$802
   103/132: $1$mem2reg_wr$\r_rdata_demux$axi4lite_arbiter_top.sv:692$574_DATA[31:0]$801
   104/132: $1$mem2reg_wr$\r_rdata_demux$axi4lite_arbiter_top.sv:692$574_ADDR[1:0]$800
   105/132: $1$mem2reg_wr$\r_rresp_demux$axi4lite_arbiter_top.sv:688$573_DATA[1:0]$799
   106/132: $1$mem2reg_wr$\r_rresp_demux$axi4lite_arbiter_top.sv:688$573_ADDR[1:0]$798
   107/132: $1$mem2reg_wr$\r_rdata_demux$axi4lite_arbiter_top.sv:687$572_DATA[31:0]$797
   108/132: $1$mem2reg_wr$\r_rdata_demux$axi4lite_arbiter_top.sv:687$572_ADDR[1:0]$796
   109/132: $1$mem2reg_wr$\r_rresp_demux$axi4lite_arbiter_top.sv:683$571_DATA[1:0]$795
   110/132: $1$mem2reg_wr$\r_rresp_demux$axi4lite_arbiter_top.sv:683$571_ADDR[1:0]$794
   111/132: $1$mem2reg_wr$\r_rdata_demux$axi4lite_arbiter_top.sv:682$570_DATA[31:0]$793
   112/132: $1$mem2reg_wr$\r_rdata_demux$axi4lite_arbiter_top.sv:682$570_ADDR[1:0]$792
   113/132: $1\r_rresp_demux[3][1:0]
   114/132: $1\r_rresp_demux[2][1:0]
   115/132: $1\r_rresp_demux[1][1:0]
   116/132: $1\r_rresp_demux[0][1:0]
   117/132: $1\r_rdata_demux[3][31:0]
   118/132: $1\r_rdata_demux[2][31:0]
   119/132: $1\r_rdata_demux[1][31:0]
   120/132: $1\r_rdata_demux[0][31:0]
   121/132: $1$bitselwrite$pos$axi4lite_arbiter_top.sv:691$560[1:0]$791
   122/132: $1$bitselwrite$pos$axi4lite_arbiter_top.sv:686$559[1:0]$790
   123/132: $1$bitselwrite$pos$axi4lite_arbiter_top.sv:681$558[1:0]$789
   124/132: $1$bitselwrite$pos$axi4lite_arbiter_top.sv:674$557[1:0]$788
   125/132: $1$bitselwrite$pos$axi4lite_arbiter_top.sv:671$556[1:0]$787
   126/132: $1$bitselwrite$pos$axi4lite_arbiter_top.sv:667$555[1:0]$786
   127/132: $1\s1_rready_mux[0:0]
   128/132: $1\s0_rready_mux[0:0]
   129/132: $1\s1_arvalid_mux[0:0]
   130/132: $1\s0_arvalid_mux[0:0]
   131/132: $1\r_rvalid_demux[3:0]
   132/132: $1\r_arready_demux[3:0]
Creating decoders for process `$paramod$20bf198c79fefe63fb33258281db4746901c4585\axi4lite_arbiter_top.$proc$axi4lite_arbiter_top.sv:589$737'.
     1/26: $4$mem2reg_rd$\m_arprot$axi4lite_arbiter_top.sv:606$569_DATA[2:0]$764
     2/26: $4$mem2reg_rd$\m_araddr$axi4lite_arbiter_top.sv:605$568_DATA[31:0]$763
     3/26: $3$mem2reg_rd$\m_arprot$axi4lite_arbiter_top.sv:606$569_DATA[2:0]$762
     4/26: $3$mem2reg_rd$\m_arprot$axi4lite_arbiter_top.sv:606$569_ADDR[1:0]$761
     5/26: $3$mem2reg_rd$\m_araddr$axi4lite_arbiter_top.sv:605$568_DATA[31:0]$760
     6/26: $3$mem2reg_rd$\m_araddr$axi4lite_arbiter_top.sv:605$568_ADDR[1:0]$759
     7/26: $3$mem2reg_rd$\m_arvalid$axi4lite_arbiter_top.sv:603$567_DATA[0:0]$757
     8/26: $2$mem2reg_rd$\m_arprot$axi4lite_arbiter_top.sv:606$569_DATA[2:0]$756
     9/26: $2$mem2reg_rd$\m_arprot$axi4lite_arbiter_top.sv:606$569_ADDR[1:0]$755
    10/26: $2$mem2reg_rd$\m_araddr$axi4lite_arbiter_top.sv:605$568_DATA[31:0]$754
    11/26: $2$mem2reg_rd$\m_araddr$axi4lite_arbiter_top.sv:605$568_ADDR[1:0]$753
    12/26: $2$mem2reg_rd$\m_arvalid$axi4lite_arbiter_top.sv:603$567_DATA[0:0]$752
    13/26: $2$mem2reg_rd$\m_arvalid$axi4lite_arbiter_top.sv:603$567_ADDR[1:0]$751
    14/26: $1$mem2reg_rd$\m_arprot$axi4lite_arbiter_top.sv:606$569_DATA[2:0]$750
    15/26: $1$mem2reg_rd$\m_arprot$axi4lite_arbiter_top.sv:606$569_ADDR[1:0]$749
    16/26: $1$mem2reg_rd$\m_araddr$axi4lite_arbiter_top.sv:605$568_DATA[31:0]$748
    17/26: $1$mem2reg_rd$\m_araddr$axi4lite_arbiter_top.sv:605$568_ADDR[1:0]$747
    18/26: $1$mem2reg_rd$\m_arvalid$axi4lite_arbiter_top.sv:603$567_DATA[0:0]$746
    19/26: $1$mem2reg_rd$\m_arvalid$axi4lite_arbiter_top.sv:603$567_ADDR[1:0]$745
    20/26: $0\read_arb_tx_done[0:0]
    21/26: $0\r_latched_prot[2:0]
    22/26: $0\r_latched_addr[31:0]
    23/26: $0\r_target_invalid[0:0]
    24/26: $0\r_target_slave_sel[1:0]
    25/26: $0\r_owner_m_id[1:0]
    26/26: $0\r_state[1:0]
Creating decoders for process `$paramod$20bf198c79fefe63fb33258281db4746901c4585\axi4lite_arbiter_top.$proc$axi4lite_arbiter_top.sv:0$736'.
     1/1: $1\r_owner_rready[0:0]
Creating decoders for process `$paramod$20bf198c79fefe63fb33258281db4746901c4585\axi4lite_arbiter_top.$proc$axi4lite_arbiter_top.sv:0$735'.
     1/4: $2\r_target_rvalid[0:0]
     2/4: $2\r_target_arready[0:0]
     3/4: $1\r_target_rvalid[0:0]
     4/4: $1\r_target_arready[0:0]
Creating decoders for process `$paramod$20bf198c79fefe63fb33258281db4746901c4585\axi4lite_arbiter_top.$proc$axi4lite_arbiter_top.sv:0$734'.
     1/1: $1\r_eval_addr[31:0]
Creating decoders for process `$paramod$20bf198c79fefe63fb33258281db4746901c4585\axi4lite_arbiter_top.$proc$axi4lite_arbiter_top.sv:0$609'.
     1/106: $7\w_bresp_demux[0][1:0]
     2/106: $7\w_bresp_demux[3][1:0]
     3/106: $7\w_bresp_demux[2][1:0]
     4/106: $7\w_bresp_demux[1][1:0]
     5/106: $4\s1_bready_mux[0:0]
     6/106: $6\w_bresp_demux[3][1:0]
     7/106: $6\w_bresp_demux[2][1:0]
     8/106: $6\w_bresp_demux[1][1:0]
     9/106: $6\w_bresp_demux[0][1:0]
    10/106: $4$mem2reg_wr$\w_bresp_demux$axi4lite_arbiter_top.sv:439$566_ADDR[1:0]$725
    11/106: $4$mem2reg_wr$\w_bresp_demux$axi4lite_arbiter_top.sv:439$566_DATA[1:0]$726
    12/106: $4\w_bvalid_demux[3:0]
    13/106: $4$bitselwrite$pos$axi4lite_arbiter_top.sv:438$554[1:0]$724
    14/106: $5\w_bresp_demux[0][1:0]
    15/106: $5\w_bresp_demux[3][1:0]
    16/106: $5\w_bresp_demux[2][1:0]
    17/106: $5\w_bresp_demux[1][1:0]
    18/106: $3\s0_bready_mux[0:0]
    19/106: $4\w_bresp_demux[3][1:0]
    20/106: $4\w_bresp_demux[2][1:0]
    21/106: $4\w_bresp_demux[1][1:0]
    22/106: $4\w_bresp_demux[0][1:0]
    23/106: $3$mem2reg_wr$\w_bresp_demux$axi4lite_arbiter_top.sv:435$565_ADDR[1:0]$713
    24/106: $3$mem2reg_wr$\w_bresp_demux$axi4lite_arbiter_top.sv:435$565_DATA[1:0]$714
    25/106: $3\w_bvalid_demux[3:0]
    26/106: $3$bitselwrite$pos$axi4lite_arbiter_top.sv:434$553[1:0]$711
    27/106: $3$mem2reg_wr$\w_bresp_demux$axi4lite_arbiter_top.sv:439$566_DATA[1:0]$716
    28/106: $3$mem2reg_wr$\w_bresp_demux$axi4lite_arbiter_top.sv:439$566_ADDR[1:0]$715
    29/106: $3$bitselwrite$pos$axi4lite_arbiter_top.sv:438$554[1:0]$712
    30/106: $3\s1_bready_mux[0:0]
    31/106: $3\w_bresp_demux[0][1:0]
    32/106: $3\w_bresp_demux[3][1:0]
    33/106: $3\w_bresp_demux[2][1:0]
    34/106: $3\w_bresp_demux[1][1:0]
    35/106: $2\w_bresp_demux[3][1:0]
    36/106: $2\w_bresp_demux[2][1:0]
    37/106: $2\w_bresp_demux[1][1:0]
    38/106: $2\w_bresp_demux[0][1:0]
    39/106: $2$mem2reg_wr$\w_bresp_demux$axi4lite_arbiter_top.sv:431$564_ADDR[1:0]$698
    40/106: $2$mem2reg_wr$\w_bresp_demux$axi4lite_arbiter_top.sv:431$564_DATA[1:0]$699
    41/106: $2\w_bvalid_demux[3:0]
    42/106: $2$bitselwrite$pos$axi4lite_arbiter_top.sv:430$552[1:0]$695
    43/106: $2$mem2reg_wr$\w_bresp_demux$axi4lite_arbiter_top.sv:439$566_DATA[1:0]$703
    44/106: $2$mem2reg_wr$\w_bresp_demux$axi4lite_arbiter_top.sv:439$566_ADDR[1:0]$702
    45/106: $2$mem2reg_wr$\w_bresp_demux$axi4lite_arbiter_top.sv:435$565_DATA[1:0]$701
    46/106: $2$mem2reg_wr$\w_bresp_demux$axi4lite_arbiter_top.sv:435$565_ADDR[1:0]$700
    47/106: $2$bitselwrite$pos$axi4lite_arbiter_top.sv:438$554[1:0]$697
    48/106: $2$bitselwrite$pos$axi4lite_arbiter_top.sv:434$553[1:0]$696
    49/106: $2\s1_bready_mux[0:0]
    50/106: $2\s0_bready_mux[0:0]
    51/106: $4\w_wready_demux[3:0]
    52/106: $4$bitselwrite$pos$axi4lite_arbiter_top.sv:423$551[1:0]$687
    53/106: $4\s1_wvalid_mux[0:0]
    54/106: $3\w_wready_demux[3:0]
    55/106: $3$bitselwrite$pos$axi4lite_arbiter_top.sv:420$550[1:0]$678
    56/106: $3\s0_wvalid_mux[0:0]
    57/106: $3$bitselwrite$pos$axi4lite_arbiter_top.sv:423$551[1:0]$679
    58/106: $3\s1_wvalid_mux[0:0]
    59/106: $2\w_wready_demux[3:0]
    60/106: $2$bitselwrite$pos$axi4lite_arbiter_top.sv:416$549[1:0]$668
    61/106: $2$bitselwrite$pos$axi4lite_arbiter_top.sv:423$551[1:0]$670
    62/106: $2$bitselwrite$pos$axi4lite_arbiter_top.sv:420$550[1:0]$669
    63/106: $2\s1_wvalid_mux[0:0]
    64/106: $2\s0_wvalid_mux[0:0]
    65/106: $4\w_awready_demux[3:0]
    66/106: $4$bitselwrite$pos$axi4lite_arbiter_top.sv:409$548[1:0]$660
    67/106: $4\s1_awvalid_mux[0:0]
    68/106: $3\w_awready_demux[3:0]
    69/106: $3$bitselwrite$pos$axi4lite_arbiter_top.sv:406$547[1:0]$651
    70/106: $3\s0_awvalid_mux[0:0]
    71/106: $3$bitselwrite$pos$axi4lite_arbiter_top.sv:409$548[1:0]$652
    72/106: $3\s1_awvalid_mux[0:0]
    73/106: $2\w_awready_demux[3:0]
    74/106: $2$bitselwrite$pos$axi4lite_arbiter_top.sv:402$546[1:0]$641
    75/106: $2$bitselwrite$pos$axi4lite_arbiter_top.sv:409$548[1:0]$643
    76/106: $2$bitselwrite$pos$axi4lite_arbiter_top.sv:406$547[1:0]$642
    77/106: $2\s1_awvalid_mux[0:0]
    78/106: $2\s0_awvalid_mux[0:0]
    79/106: $1$mem2reg_wr$\w_bresp_demux$axi4lite_arbiter_top.sv:439$566_DATA[1:0]$640
    80/106: $1$mem2reg_wr$\w_bresp_demux$axi4lite_arbiter_top.sv:439$566_ADDR[1:0]$639
    81/106: $1$mem2reg_wr$\w_bresp_demux$axi4lite_arbiter_top.sv:435$565_DATA[1:0]$638
    82/106: $1$mem2reg_wr$\w_bresp_demux$axi4lite_arbiter_top.sv:435$565_ADDR[1:0]$637
    83/106: $1$mem2reg_wr$\w_bresp_demux$axi4lite_arbiter_top.sv:431$564_DATA[1:0]$636
    84/106: $1$mem2reg_wr$\w_bresp_demux$axi4lite_arbiter_top.sv:431$564_ADDR[1:0]$635
    85/106: $1\w_bresp_demux[3][1:0]
    86/106: $1\w_bresp_demux[2][1:0]
    87/106: $1\w_bresp_demux[1][1:0]
    88/106: $1\w_bresp_demux[0][1:0]
    89/106: $1$bitselwrite$pos$axi4lite_arbiter_top.sv:438$554[1:0]$634
    90/106: $1$bitselwrite$pos$axi4lite_arbiter_top.sv:434$553[1:0]$633
    91/106: $1$bitselwrite$pos$axi4lite_arbiter_top.sv:430$552[1:0]$632
    92/106: $1$bitselwrite$pos$axi4lite_arbiter_top.sv:423$551[1:0]$631
    93/106: $1$bitselwrite$pos$axi4lite_arbiter_top.sv:420$550[1:0]$630
    94/106: $1$bitselwrite$pos$axi4lite_arbiter_top.sv:416$549[1:0]$629
    95/106: $1$bitselwrite$pos$axi4lite_arbiter_top.sv:409$548[1:0]$628
    96/106: $1$bitselwrite$pos$axi4lite_arbiter_top.sv:406$547[1:0]$627
    97/106: $1$bitselwrite$pos$axi4lite_arbiter_top.sv:402$546[1:0]$626
    98/106: $1\s1_bready_mux[0:0]
    99/106: $1\s0_bready_mux[0:0]
   100/106: $1\s1_wvalid_mux[0:0]
   101/106: $1\s0_wvalid_mux[0:0]
   102/106: $1\s1_awvalid_mux[0:0]
   103/106: $1\s0_awvalid_mux[0:0]
   104/106: $1\w_bvalid_demux[3:0]
   105/106: $1\w_wready_demux[3:0]
   106/106: $1\w_awready_demux[3:0]
Creating decoders for process `$paramod$20bf198c79fefe63fb33258281db4746901c4585\axi4lite_arbiter_top.$proc$axi4lite_arbiter_top.sv:313$579'.
     1/26: $4$mem2reg_rd$\m_awprot$axi4lite_arbiter_top.sv:330$563_DATA[2:0]$606
     2/26: $4$mem2reg_rd$\m_awaddr$axi4lite_arbiter_top.sv:329$562_DATA[31:0]$605
     3/26: $3$mem2reg_rd$\m_awprot$axi4lite_arbiter_top.sv:330$563_DATA[2:0]$604
     4/26: $3$mem2reg_rd$\m_awprot$axi4lite_arbiter_top.sv:330$563_ADDR[1:0]$603
     5/26: $3$mem2reg_rd$\m_awaddr$axi4lite_arbiter_top.sv:329$562_DATA[31:0]$602
     6/26: $3$mem2reg_rd$\m_awaddr$axi4lite_arbiter_top.sv:329$562_ADDR[1:0]$601
     7/26: $3$mem2reg_rd$\m_awvalid$axi4lite_arbiter_top.sv:327$561_DATA[0:0]$599
     8/26: $2$mem2reg_rd$\m_awprot$axi4lite_arbiter_top.sv:330$563_DATA[2:0]$598
     9/26: $2$mem2reg_rd$\m_awprot$axi4lite_arbiter_top.sv:330$563_ADDR[1:0]$597
    10/26: $2$mem2reg_rd$\m_awaddr$axi4lite_arbiter_top.sv:329$562_DATA[31:0]$596
    11/26: $2$mem2reg_rd$\m_awaddr$axi4lite_arbiter_top.sv:329$562_ADDR[1:0]$595
    12/26: $2$mem2reg_rd$\m_awvalid$axi4lite_arbiter_top.sv:327$561_DATA[0:0]$594
    13/26: $2$mem2reg_rd$\m_awvalid$axi4lite_arbiter_top.sv:327$561_ADDR[1:0]$593
    14/26: $1$mem2reg_rd$\m_awprot$axi4lite_arbiter_top.sv:330$563_DATA[2:0]$592
    15/26: $1$mem2reg_rd$\m_awprot$axi4lite_arbiter_top.sv:330$563_ADDR[1:0]$591
    16/26: $1$mem2reg_rd$\m_awaddr$axi4lite_arbiter_top.sv:329$562_DATA[31:0]$590
    17/26: $1$mem2reg_rd$\m_awaddr$axi4lite_arbiter_top.sv:329$562_ADDR[1:0]$589
    18/26: $1$mem2reg_rd$\m_awvalid$axi4lite_arbiter_top.sv:327$561_DATA[0:0]$588
    19/26: $1$mem2reg_rd$\m_awvalid$axi4lite_arbiter_top.sv:327$561_ADDR[1:0]$587
    20/26: $0\write_arb_tx_done[0:0]
    21/26: $0\w_latched_prot[2:0]
    22/26: $0\w_latched_addr[31:0]
    23/26: $0\w_target_invalid[0:0]
    24/26: $0\w_target_slave_sel[1:0]
    25/26: $0\w_owner_m_id[1:0]
    26/26: $0\w_state[1:0]
Creating decoders for process `$paramod$20bf198c79fefe63fb33258281db4746901c4585\axi4lite_arbiter_top.$proc$axi4lite_arbiter_top.sv:0$578'.
     1/4: $1\w_owner_bready[0:0]
     2/4: $1\w_owner_wvalid[0:0]
     3/4: $1\w_owner_wstrb[3:0]
     4/4: $1\w_owner_wdata[31:0]
Creating decoders for process `$paramod$20bf198c79fefe63fb33258281db4746901c4585\axi4lite_arbiter_top.$proc$axi4lite_arbiter_top.sv:0$577'.
     1/6: $2\w_target_bvalid[0:0]
     2/6: $2\w_target_wready[0:0]
     3/6: $2\w_target_awready[0:0]
     4/6: $1\w_target_bvalid[0:0]
     5/6: $1\w_target_wready[0:0]
     6/6: $1\w_target_awready[0:0]
Creating decoders for process `$paramod$20bf198c79fefe63fb33258281db4746901c4585\axi4lite_arbiter_top.$proc$axi4lite_arbiter_top.sv:0$576'.
     1/1: $1\w_eval_addr[31:0]
Creating decoders for process `\arbiter_formal.$proc$arbiter_formal.sv:133$545'.
Creating decoders for process `\arbiter_formal.$proc$arbiter_formal.sv:191$507'.
     1/7: $assume$arbiter_formal.sv:211$543_EN
     2/7: $assume$arbiter_formal.sv:208$538_EN
     3/7: $assume$arbiter_formal.sv:203$531_EN
     4/7: $assume$arbiter_formal.sv:202$529_EN
     5/7: $assume$arbiter_formal.sv:201$528_EN
     6/7: $assume$arbiter_formal.sv:196$524_EN
     7/7: $assume$arbiter_formal.sv:195$523_EN
Creating decoders for process `\arbiter_formal.$proc$arbiter_formal.sv:191$469'.
     1/7: $assume$arbiter_formal.sv:211$505_EN
     2/7: $assume$arbiter_formal.sv:208$500_EN
     3/7: $assume$arbiter_formal.sv:203$493_EN
     4/7: $assume$arbiter_formal.sv:202$491_EN
     5/7: $assume$arbiter_formal.sv:201$490_EN
     6/7: $assume$arbiter_formal.sv:196$486_EN
     7/7: $assume$arbiter_formal.sv:195$485_EN
Creating decoders for process `\arbiter_formal.$proc$arbiter_formal.sv:160$434'.
     1/9: $assume$arbiter_formal.sv:180$467_EN
     2/9: $assume$arbiter_formal.sv:179$465_EN
     3/9: $assume$arbiter_formal.sv:178$464_EN
     4/9: $assume$arbiter_formal.sv:173$460_EN
     5/9: $assume$arbiter_formal.sv:172$458_EN
     6/9: $assume$arbiter_formal.sv:171$457_EN
     7/9: $assume$arbiter_formal.sv:166$453_EN
     8/9: $assume$arbiter_formal.sv:165$451_EN
     9/9: $assume$arbiter_formal.sv:164$450_EN
Creating decoders for process `\arbiter_formal.$proc$arbiter_formal.sv:160$399'.
     1/9: $assume$arbiter_formal.sv:180$432_EN
     2/9: $assume$arbiter_formal.sv:179$430_EN
     3/9: $assume$arbiter_formal.sv:178$429_EN
     4/9: $assume$arbiter_formal.sv:173$425_EN
     5/9: $assume$arbiter_formal.sv:172$423_EN
     6/9: $assume$arbiter_formal.sv:171$422_EN
     7/9: $assume$arbiter_formal.sv:166$418_EN
     8/9: $assume$arbiter_formal.sv:165$416_EN
     9/9: $assume$arbiter_formal.sv:164$415_EN
Creating decoders for process `\arbiter_formal.$proc$arbiter_formal.sv:160$364'.
     1/9: $assume$arbiter_formal.sv:180$397_EN
     2/9: $assume$arbiter_formal.sv:179$395_EN
     3/9: $assume$arbiter_formal.sv:178$394_EN
     4/9: $assume$arbiter_formal.sv:173$390_EN
     5/9: $assume$arbiter_formal.sv:172$388_EN
     6/9: $assume$arbiter_formal.sv:171$387_EN
     7/9: $assume$arbiter_formal.sv:166$383_EN
     8/9: $assume$arbiter_formal.sv:165$381_EN
     9/9: $assume$arbiter_formal.sv:164$380_EN
Creating decoders for process `\arbiter_formal.$proc$arbiter_formal.sv:160$329'.
     1/9: $assume$arbiter_formal.sv:180$362_EN
     2/9: $assume$arbiter_formal.sv:179$360_EN
     3/9: $assume$arbiter_formal.sv:178$359_EN
     4/9: $assume$arbiter_formal.sv:173$355_EN
     5/9: $assume$arbiter_formal.sv:172$353_EN
     6/9: $assume$arbiter_formal.sv:171$352_EN
     7/9: $assume$arbiter_formal.sv:166$348_EN
     8/9: $assume$arbiter_formal.sv:165$346_EN
     9/9: $assume$arbiter_formal.sv:164$345_EN
Creating decoders for process `\arbiter_formal.$proc$arbiter_formal.sv:337$315'.
     1/3: $assert$arbiter_formal.sv:342$325_EN
     2/3: $assert$arbiter_formal.sv:341$321_EN
     3/3: $assert$arbiter_formal.sv:340$319_EN
Creating decoders for process `\arbiter_formal.$proc$arbiter_formal.sv:326$305'.
     1/2: $assert$arbiter_formal.sv:331$311_EN
     2/2: $assert$arbiter_formal.sv:330$309_EN
Creating decoders for process `\arbiter_formal.$proc$arbiter_formal.sv:313$300'.
     1/1: $assert$arbiter_formal.sv:316$303_EN
Creating decoders for process `\arbiter_formal.$proc$arbiter_formal.sv:304$295'.
     1/1: $assert$arbiter_formal.sv:307$298_EN
Creating decoders for process `\arbiter_formal.$proc$arbiter_formal.sv:291$286'.
     1/1: $assert$arbiter_formal.sv:294$293_EN
Creating decoders for process `\arbiter_formal.$proc$arbiter_formal.sv:281$277'.
     1/1: $assert$arbiter_formal.sv:285$284_EN
Creating decoders for process `\arbiter_formal.$proc$arbiter_formal.sv:263$259'.
     1/8: $assert$arbiter_formal.sv:272$275_EN
     2/8: $assert$arbiter_formal.sv:271$273_EN
     3/8: $assert$arbiter_formal.sv:270$271_EN
     4/8: $assert$arbiter_formal.sv:269$269_EN
     5/8: $assert$arbiter_formal.sv:268$267_EN
     6/8: $assert$arbiter_formal.sv:267$265_EN
     7/8: $assert$arbiter_formal.sv:266$263_EN
     8/8: $assert$arbiter_formal.sv:265$261_EN
Creating decoders for process `\arbiter_formal.$proc$arbiter_formal.sv:255$222'.
     1/2: $assert$arbiter_formal.sv:258$241_EN
     2/2: $assert$arbiter_formal.sv:257$223_EN
Creating decoders for process `\arbiter_formal.$proc$arbiter_formal.sv:243$215'.
     1/2: $assert$arbiter_formal.sv:249$220_EN
     2/2: $assert$arbiter_formal.sv:246$217_EN
Creating decoders for process `\arbiter_formal.$proc$arbiter_formal.sv:234$184'.
     1/3: $assert$arbiter_formal.sv:238$205_EN
     2/3: $assert$arbiter_formal.sv:237$195_EN
     3/3: $assert$arbiter_formal.sv:236$185_EN
Creating decoders for process `\arbiter_formal.$proc$arbiter_formal.sv:223$93'.
     1/5: $assert$arbiter_formal.sv:229$166_EN
     2/5: $assert$arbiter_formal.sv:228$148_EN
     3/5: $assert$arbiter_formal.sv:227$130_EN
     4/5: $assert$arbiter_formal.sv:226$112_EN
     5/5: $assert$arbiter_formal.sv:225$94_EN
Creating decoders for process `\arbiter_formal.$proc$arbiter_formal.sv:143$87'.
     1/2: $assume$arbiter_formal.sv:147$91_EN
     2/2: $assume$arbiter_formal.sv:145$89_EN
Creating decoders for process `\arbiter_formal.$proc$arbiter_formal.sv:134$83'.
     1/1: $0\f_reset_count[2:0]

5.3.8. Executing PROC_DLATCH pass (convert process syncs to latches).
No latch inferred for signal `$paramod$508cca98229eff1b70362476b43647777eac3ce1\qos_arbiter.\grant' from process `$paramod$508cca98229eff1b70362476b43647777eac3ce1\qos_arbiter.$proc$qos_arbiter.sv:0$943'.
No latch inferred for signal `$paramod$508cca98229eff1b70362476b43647777eac3ce1\qos_arbiter.\master_id' from process `$paramod$508cca98229eff1b70362476b43647777eac3ce1\qos_arbiter.$proc$qos_arbiter.sv:0$943'.
No latch inferred for signal `$paramod$508cca98229eff1b70362476b43647777eac3ce1\qos_arbiter.\grant_valid' from process `$paramod$508cca98229eff1b70362476b43647777eac3ce1\qos_arbiter.$proc$qos_arbiter.sv:0$943'.
No latch inferred for signal `$paramod$508cca98229eff1b70362476b43647777eac3ce1\qos_arbiter.$bitselwrite$pos$qos_arbiter.sv:253$893' from process `$paramod$508cca98229eff1b70362476b43647777eac3ce1\qos_arbiter.$proc$qos_arbiter.sv:0$943'.
No latch inferred for signal `$paramod$508cca98229eff1b70362476b43647777eac3ce1\qos_arbiter.$bitselwrite$pos$qos_arbiter.sv:257$894' from process `$paramod$508cca98229eff1b70362476b43647777eac3ce1\qos_arbiter.$proc$qos_arbiter.sv:0$943'.
No latch inferred for signal `$paramod$508cca98229eff1b70362476b43647777eac3ce1\qos_arbiter.\next_cand' from process `$paramod$508cca98229eff1b70362476b43647777eac3ce1\qos_arbiter.$proc$qos_arbiter.sv:0$906'.
No latch inferred for signal `$paramod$508cca98229eff1b70362476b43647777eac3ce1\qos_arbiter.\cand_valid' from process `$paramod$508cca98229eff1b70362476b43647777eac3ce1\qos_arbiter.$proc$qos_arbiter.sv:0$906'.
No latch inferred for signal `$paramod$508cca98229eff1b70362476b43647777eac3ce1\qos_arbiter.\eff_q1' from process `$paramod$508cca98229eff1b70362476b43647777eac3ce1\qos_arbiter.$proc$qos_arbiter.sv:0$897'.
No latch inferred for signal `$paramod$508cca98229eff1b70362476b43647777eac3ce1\qos_arbiter.\eff_q2' from process `$paramod$508cca98229eff1b70362476b43647777eac3ce1\qos_arbiter.$proc$qos_arbiter.sv:0$897'.
No latch inferred for signal `$paramod$508cca98229eff1b70362476b43647777eac3ce1\qos_arbiter.\eff_q3' from process `$paramod$508cca98229eff1b70362476b43647777eac3ce1\qos_arbiter.$proc$qos_arbiter.sv:0$897'.
No latch inferred for signal `$paramod$508cca98229eff1b70362476b43647777eac3ce1\qos_arbiter.\eff_rr_ptr' from process `$paramod$508cca98229eff1b70362476b43647777eac3ce1\qos_arbiter.$proc$qos_arbiter.sv:0$897'.
No latch inferred for signal `$paramod$508cca98229eff1b70362476b43647777eac3ce1\qos_arbiter.\eff_starvation' from process `$paramod$508cca98229eff1b70362476b43647777eac3ce1\qos_arbiter.$proc$qos_arbiter.sv:0$897'.
No latch inferred for signal `$paramod$59f66e305bd3b47082af7a1e20206251db0b33b5\addr_decoder.\slave_sel' from process `$paramod$59f66e305bd3b47082af7a1e20206251db0b33b5\addr_decoder.$proc$addr_decoder.sv:0$884'.
No latch inferred for signal `$paramod$59f66e305bd3b47082af7a1e20206251db0b33b5\addr_decoder.\valid_addr' from process `$paramod$59f66e305bd3b47082af7a1e20206251db0b33b5\addr_decoder.$proc$addr_decoder.sv:0$884'.
No latch inferred for signal `$paramod$59f66e305bd3b47082af7a1e20206251db0b33b5\addr_decoder.\invalid_addr' from process `$paramod$59f66e305bd3b47082af7a1e20206251db0b33b5\addr_decoder.$proc$addr_decoder.sv:0$884'.
No latch inferred for signal `$paramod$59f66e305bd3b47082af7a1e20206251db0b33b5\addr_decoder.\match_s0' from process `$paramod$59f66e305bd3b47082af7a1e20206251db0b33b5\addr_decoder.$proc$addr_decoder.sv:0$884'.
No latch inferred for signal `$paramod$59f66e305bd3b47082af7a1e20206251db0b33b5\addr_decoder.\match_s1' from process `$paramod$59f66e305bd3b47082af7a1e20206251db0b33b5\addr_decoder.$proc$addr_decoder.sv:0$884'.
No latch inferred for signal `$paramod$20bf198c79fefe63fb33258281db4746901c4585\axi4lite_arbiter_top.\m_awaddr[0]' from process `$paramod$20bf198c79fefe63fb33258281db4746901c4585\axi4lite_arbiter_top.$proc$axi4lite_arbiter_top.sv:0$882'.
No latch inferred for signal `$paramod$20bf198c79fefe63fb33258281db4746901c4585\axi4lite_arbiter_top.\m_awaddr[1]' from process `$paramod$20bf198c79fefe63fb33258281db4746901c4585\axi4lite_arbiter_top.$proc$axi4lite_arbiter_top.sv:0$882'.
No latch inferred for signal `$paramod$20bf198c79fefe63fb33258281db4746901c4585\axi4lite_arbiter_top.\m_awaddr[2]' from process `$paramod$20bf198c79fefe63fb33258281db4746901c4585\axi4lite_arbiter_top.$proc$axi4lite_arbiter_top.sv:0$882'.
No latch inferred for signal `$paramod$20bf198c79fefe63fb33258281db4746901c4585\axi4lite_arbiter_top.\m_awaddr[3]' from process `$paramod$20bf198c79fefe63fb33258281db4746901c4585\axi4lite_arbiter_top.$proc$axi4lite_arbiter_top.sv:0$882'.
No latch inferred for signal `$paramod$20bf198c79fefe63fb33258281db4746901c4585\axi4lite_arbiter_top.\m_awprot[0]' from process `$paramod$20bf198c79fefe63fb33258281db4746901c4585\axi4lite_arbiter_top.$proc$axi4lite_arbiter_top.sv:0$882'.
No latch inferred for signal `$paramod$20bf198c79fefe63fb33258281db4746901c4585\axi4lite_arbiter_top.\m_awprot[1]' from process `$paramod$20bf198c79fefe63fb33258281db4746901c4585\axi4lite_arbiter_top.$proc$axi4lite_arbiter_top.sv:0$882'.
No latch inferred for signal `$paramod$20bf198c79fefe63fb33258281db4746901c4585\axi4lite_arbiter_top.\m_awprot[2]' from process `$paramod$20bf198c79fefe63fb33258281db4746901c4585\axi4lite_arbiter_top.$proc$axi4lite_arbiter_top.sv:0$882'.
No latch inferred for signal `$paramod$20bf198c79fefe63fb33258281db4746901c4585\axi4lite_arbiter_top.\m_awprot[3]' from process `$paramod$20bf198c79fefe63fb33258281db4746901c4585\axi4lite_arbiter_top.$proc$axi4lite_arbiter_top.sv:0$882'.
No latch inferred for signal `$paramod$20bf198c79fefe63fb33258281db4746901c4585\axi4lite_arbiter_top.\m_awvalid[0]' from process `$paramod$20bf198c79fefe63fb33258281db4746901c4585\axi4lite_arbiter_top.$proc$axi4lite_arbiter_top.sv:0$882'.
No latch inferred for signal `$paramod$20bf198c79fefe63fb33258281db4746901c4585\axi4lite_arbiter_top.\m_awvalid[1]' from process `$paramod$20bf198c79fefe63fb33258281db4746901c4585\axi4lite_arbiter_top.$proc$axi4lite_arbiter_top.sv:0$882'.
No latch inferred for signal `$paramod$20bf198c79fefe63fb33258281db4746901c4585\axi4lite_arbiter_top.\m_awvalid[2]' from process `$paramod$20bf198c79fefe63fb33258281db4746901c4585\axi4lite_arbiter_top.$proc$axi4lite_arbiter_top.sv:0$882'.
No latch inferred for signal `$paramod$20bf198c79fefe63fb33258281db4746901c4585\axi4lite_arbiter_top.\m_awvalid[3]' from process `$paramod$20bf198c79fefe63fb33258281db4746901c4585\axi4lite_arbiter_top.$proc$axi4lite_arbiter_top.sv:0$882'.
No latch inferred for signal `$paramod$20bf198c79fefe63fb33258281db4746901c4585\axi4lite_arbiter_top.\m_wdata[0]' from process `$paramod$20bf198c79fefe63fb33258281db4746901c4585\axi4lite_arbiter_top.$proc$axi4lite_arbiter_top.sv:0$882'.
No latch inferred for signal `$paramod$20bf198c79fefe63fb33258281db4746901c4585\axi4lite_arbiter_top.\m_wdata[1]' from process `$paramod$20bf198c79fefe63fb33258281db4746901c4585\axi4lite_arbiter_top.$proc$axi4lite_arbiter_top.sv:0$882'.
No latch inferred for signal `$paramod$20bf198c79fefe63fb33258281db4746901c4585\axi4lite_arbiter_top.\m_wdata[2]' from process `$paramod$20bf198c79fefe63fb33258281db4746901c4585\axi4lite_arbiter_top.$proc$axi4lite_arbiter_top.sv:0$882'.
No latch inferred for signal `$paramod$20bf198c79fefe63fb33258281db4746901c4585\axi4lite_arbiter_top.\m_wdata[3]' from process `$paramod$20bf198c79fefe63fb33258281db4746901c4585\axi4lite_arbiter_top.$proc$axi4lite_arbiter_top.sv:0$882'.
No latch inferred for signal `$paramod$20bf198c79fefe63fb33258281db4746901c4585\axi4lite_arbiter_top.\m_wstrb[0]' from process `$paramod$20bf198c79fefe63fb33258281db4746901c4585\axi4lite_arbiter_top.$proc$axi4lite_arbiter_top.sv:0$882'.
No latch inferred for signal `$paramod$20bf198c79fefe63fb33258281db4746901c4585\axi4lite_arbiter_top.\m_wstrb[1]' from process `$paramod$20bf198c79fefe63fb33258281db4746901c4585\axi4lite_arbiter_top.$proc$axi4lite_arbiter_top.sv:0$882'.
No latch inferred for signal `$paramod$20bf198c79fefe63fb33258281db4746901c4585\axi4lite_arbiter_top.\m_wstrb[2]' from process `$paramod$20bf198c79fefe63fb33258281db4746901c4585\axi4lite_arbiter_top.$proc$axi4lite_arbiter_top.sv:0$882'.
No latch inferred for signal `$paramod$20bf198c79fefe63fb33258281db4746901c4585\axi4lite_arbiter_top.\m_wstrb[3]' from process `$paramod$20bf198c79fefe63fb33258281db4746901c4585\axi4lite_arbiter_top.$proc$axi4lite_arbiter_top.sv:0$882'.
No latch inferred for signal `$paramod$20bf198c79fefe63fb33258281db4746901c4585\axi4lite_arbiter_top.\m_wvalid[0]' from process `$paramod$20bf198c79fefe63fb33258281db4746901c4585\axi4lite_arbiter_top.$proc$axi4lite_arbiter_top.sv:0$882'.
No latch inferred for signal `$paramod$20bf198c79fefe63fb33258281db4746901c4585\axi4lite_arbiter_top.\m_wvalid[1]' from process `$paramod$20bf198c79fefe63fb33258281db4746901c4585\axi4lite_arbiter_top.$proc$axi4lite_arbiter_top.sv:0$882'.
No latch inferred for signal `$paramod$20bf198c79fefe63fb33258281db4746901c4585\axi4lite_arbiter_top.\m_wvalid[2]' from process `$paramod$20bf198c79fefe63fb33258281db4746901c4585\axi4lite_arbiter_top.$proc$axi4lite_arbiter_top.sv:0$882'.
No latch inferred for signal `$paramod$20bf198c79fefe63fb33258281db4746901c4585\axi4lite_arbiter_top.\m_wvalid[3]' from process `$paramod$20bf198c79fefe63fb33258281db4746901c4585\axi4lite_arbiter_top.$proc$axi4lite_arbiter_top.sv:0$882'.
No latch inferred for signal `$paramod$20bf198c79fefe63fb33258281db4746901c4585\axi4lite_arbiter_top.\m_bready[0]' from process `$paramod$20bf198c79fefe63fb33258281db4746901c4585\axi4lite_arbiter_top.$proc$axi4lite_arbiter_top.sv:0$882'.
No latch inferred for signal `$paramod$20bf198c79fefe63fb33258281db4746901c4585\axi4lite_arbiter_top.\m_bready[1]' from process `$paramod$20bf198c79fefe63fb33258281db4746901c4585\axi4lite_arbiter_top.$proc$axi4lite_arbiter_top.sv:0$882'.
No latch inferred for signal `$paramod$20bf198c79fefe63fb33258281db4746901c4585\axi4lite_arbiter_top.\m_bready[2]' from process `$paramod$20bf198c79fefe63fb33258281db4746901c4585\axi4lite_arbiter_top.$proc$axi4lite_arbiter_top.sv:0$882'.
No latch inferred for signal `$paramod$20bf198c79fefe63fb33258281db4746901c4585\axi4lite_arbiter_top.\m_bready[3]' from process `$paramod$20bf198c79fefe63fb33258281db4746901c4585\axi4lite_arbiter_top.$proc$axi4lite_arbiter_top.sv:0$882'.
No latch inferred for signal `$paramod$20bf198c79fefe63fb33258281db4746901c4585\axi4lite_arbiter_top.\m_araddr[0]' from process `$paramod$20bf198c79fefe63fb33258281db4746901c4585\axi4lite_arbiter_top.$proc$axi4lite_arbiter_top.sv:0$882'.
No latch inferred for signal `$paramod$20bf198c79fefe63fb33258281db4746901c4585\axi4lite_arbiter_top.\m_araddr[1]' from process `$paramod$20bf198c79fefe63fb33258281db4746901c4585\axi4lite_arbiter_top.$proc$axi4lite_arbiter_top.sv:0$882'.
No latch inferred for signal `$paramod$20bf198c79fefe63fb33258281db4746901c4585\axi4lite_arbiter_top.\m_araddr[2]' from process `$paramod$20bf198c79fefe63fb33258281db4746901c4585\axi4lite_arbiter_top.$proc$axi4lite_arbiter_top.sv:0$882'.
No latch inferred for signal `$paramod$20bf198c79fefe63fb33258281db4746901c4585\axi4lite_arbiter_top.\m_araddr[3]' from process `$paramod$20bf198c79fefe63fb33258281db4746901c4585\axi4lite_arbiter_top.$proc$axi4lite_arbiter_top.sv:0$882'.
No latch inferred for signal `$paramod$20bf198c79fefe63fb33258281db4746901c4585\axi4lite_arbiter_top.\m_arprot[0]' from process `$paramod$20bf198c79fefe63fb33258281db4746901c4585\axi4lite_arbiter_top.$proc$axi4lite_arbiter_top.sv:0$882'.
No latch inferred for signal `$paramod$20bf198c79fefe63fb33258281db4746901c4585\axi4lite_arbiter_top.\m_arprot[1]' from process `$paramod$20bf198c79fefe63fb33258281db4746901c4585\axi4lite_arbiter_top.$proc$axi4lite_arbiter_top.sv:0$882'.
No latch inferred for signal `$paramod$20bf198c79fefe63fb33258281db4746901c4585\axi4lite_arbiter_top.\m_arprot[2]' from process `$paramod$20bf198c79fefe63fb33258281db4746901c4585\axi4lite_arbiter_top.$proc$axi4lite_arbiter_top.sv:0$882'.
No latch inferred for signal `$paramod$20bf198c79fefe63fb33258281db4746901c4585\axi4lite_arbiter_top.\m_arprot[3]' from process `$paramod$20bf198c79fefe63fb33258281db4746901c4585\axi4lite_arbiter_top.$proc$axi4lite_arbiter_top.sv:0$882'.
No latch inferred for signal `$paramod$20bf198c79fefe63fb33258281db4746901c4585\axi4lite_arbiter_top.\m_arvalid[0]' from process `$paramod$20bf198c79fefe63fb33258281db4746901c4585\axi4lite_arbiter_top.$proc$axi4lite_arbiter_top.sv:0$882'.
No latch inferred for signal `$paramod$20bf198c79fefe63fb33258281db4746901c4585\axi4lite_arbiter_top.\m_arvalid[1]' from process `$paramod$20bf198c79fefe63fb33258281db4746901c4585\axi4lite_arbiter_top.$proc$axi4lite_arbiter_top.sv:0$882'.
No latch inferred for signal `$paramod$20bf198c79fefe63fb33258281db4746901c4585\axi4lite_arbiter_top.\m_arvalid[2]' from process `$paramod$20bf198c79fefe63fb33258281db4746901c4585\axi4lite_arbiter_top.$proc$axi4lite_arbiter_top.sv:0$882'.
No latch inferred for signal `$paramod$20bf198c79fefe63fb33258281db4746901c4585\axi4lite_arbiter_top.\m_arvalid[3]' from process `$paramod$20bf198c79fefe63fb33258281db4746901c4585\axi4lite_arbiter_top.$proc$axi4lite_arbiter_top.sv:0$882'.
No latch inferred for signal `$paramod$20bf198c79fefe63fb33258281db4746901c4585\axi4lite_arbiter_top.\m_rready[0]' from process `$paramod$20bf198c79fefe63fb33258281db4746901c4585\axi4lite_arbiter_top.$proc$axi4lite_arbiter_top.sv:0$882'.
No latch inferred for signal `$paramod$20bf198c79fefe63fb33258281db4746901c4585\axi4lite_arbiter_top.\m_rready[1]' from process `$paramod$20bf198c79fefe63fb33258281db4746901c4585\axi4lite_arbiter_top.$proc$axi4lite_arbiter_top.sv:0$882'.
No latch inferred for signal `$paramod$20bf198c79fefe63fb33258281db4746901c4585\axi4lite_arbiter_top.\m_rready[2]' from process `$paramod$20bf198c79fefe63fb33258281db4746901c4585\axi4lite_arbiter_top.$proc$axi4lite_arbiter_top.sv:0$882'.
No latch inferred for signal `$paramod$20bf198c79fefe63fb33258281db4746901c4585\axi4lite_arbiter_top.\m_rready[3]' from process `$paramod$20bf198c79fefe63fb33258281db4746901c4585\axi4lite_arbiter_top.$proc$axi4lite_arbiter_top.sv:0$882'.
No latch inferred for signal `$paramod$20bf198c79fefe63fb33258281db4746901c4585\axi4lite_arbiter_top.\r_arready_demux' from process `$paramod$20bf198c79fefe63fb33258281db4746901c4585\axi4lite_arbiter_top.$proc$axi4lite_arbiter_top.sv:0$766'.
No latch inferred for signal `$paramod$20bf198c79fefe63fb33258281db4746901c4585\axi4lite_arbiter_top.\r_rvalid_demux' from process `$paramod$20bf198c79fefe63fb33258281db4746901c4585\axi4lite_arbiter_top.$proc$axi4lite_arbiter_top.sv:0$766'.
No latch inferred for signal `$paramod$20bf198c79fefe63fb33258281db4746901c4585\axi4lite_arbiter_top.\s0_arvalid_mux' from process `$paramod$20bf198c79fefe63fb33258281db4746901c4585\axi4lite_arbiter_top.$proc$axi4lite_arbiter_top.sv:0$766'.
No latch inferred for signal `$paramod$20bf198c79fefe63fb33258281db4746901c4585\axi4lite_arbiter_top.\s1_arvalid_mux' from process `$paramod$20bf198c79fefe63fb33258281db4746901c4585\axi4lite_arbiter_top.$proc$axi4lite_arbiter_top.sv:0$766'.
No latch inferred for signal `$paramod$20bf198c79fefe63fb33258281db4746901c4585\axi4lite_arbiter_top.\s0_rready_mux' from process `$paramod$20bf198c79fefe63fb33258281db4746901c4585\axi4lite_arbiter_top.$proc$axi4lite_arbiter_top.sv:0$766'.
No latch inferred for signal `$paramod$20bf198c79fefe63fb33258281db4746901c4585\axi4lite_arbiter_top.\s1_rready_mux' from process `$paramod$20bf198c79fefe63fb33258281db4746901c4585\axi4lite_arbiter_top.$proc$axi4lite_arbiter_top.sv:0$766'.
No latch inferred for signal `$paramod$20bf198c79fefe63fb33258281db4746901c4585\axi4lite_arbiter_top.$fordecl_block$3.i' from process `$paramod$20bf198c79fefe63fb33258281db4746901c4585\axi4lite_arbiter_top.$proc$axi4lite_arbiter_top.sv:0$766'.
No latch inferred for signal `$paramod$20bf198c79fefe63fb33258281db4746901c4585\axi4lite_arbiter_top.$bitselwrite$pos$axi4lite_arbiter_top.sv:667$555' from process `$paramod$20bf198c79fefe63fb33258281db4746901c4585\axi4lite_arbiter_top.$proc$axi4lite_arbiter_top.sv:0$766'.
No latch inferred for signal `$paramod$20bf198c79fefe63fb33258281db4746901c4585\axi4lite_arbiter_top.$bitselwrite$pos$axi4lite_arbiter_top.sv:671$556' from process `$paramod$20bf198c79fefe63fb33258281db4746901c4585\axi4lite_arbiter_top.$proc$axi4lite_arbiter_top.sv:0$766'.
No latch inferred for signal `$paramod$20bf198c79fefe63fb33258281db4746901c4585\axi4lite_arbiter_top.$bitselwrite$pos$axi4lite_arbiter_top.sv:674$557' from process `$paramod$20bf198c79fefe63fb33258281db4746901c4585\axi4lite_arbiter_top.$proc$axi4lite_arbiter_top.sv:0$766'.
No latch inferred for signal `$paramod$20bf198c79fefe63fb33258281db4746901c4585\axi4lite_arbiter_top.$bitselwrite$pos$axi4lite_arbiter_top.sv:681$558' from process `$paramod$20bf198c79fefe63fb33258281db4746901c4585\axi4lite_arbiter_top.$proc$axi4lite_arbiter_top.sv:0$766'.
No latch inferred for signal `$paramod$20bf198c79fefe63fb33258281db4746901c4585\axi4lite_arbiter_top.$bitselwrite$pos$axi4lite_arbiter_top.sv:686$559' from process `$paramod$20bf198c79fefe63fb33258281db4746901c4585\axi4lite_arbiter_top.$proc$axi4lite_arbiter_top.sv:0$766'.
No latch inferred for signal `$paramod$20bf198c79fefe63fb33258281db4746901c4585\axi4lite_arbiter_top.$bitselwrite$pos$axi4lite_arbiter_top.sv:691$560' from process `$paramod$20bf198c79fefe63fb33258281db4746901c4585\axi4lite_arbiter_top.$proc$axi4lite_arbiter_top.sv:0$766'.
No latch inferred for signal `$paramod$20bf198c79fefe63fb33258281db4746901c4585\axi4lite_arbiter_top.\r_rdata_demux[0]' from process `$paramod$20bf198c79fefe63fb33258281db4746901c4585\axi4lite_arbiter_top.$proc$axi4lite_arbiter_top.sv:0$766'.
No latch inferred for signal `$paramod$20bf198c79fefe63fb33258281db4746901c4585\axi4lite_arbiter_top.\r_rdata_demux[1]' from process `$paramod$20bf198c79fefe63fb33258281db4746901c4585\axi4lite_arbiter_top.$proc$axi4lite_arbiter_top.sv:0$766'.
No latch inferred for signal `$paramod$20bf198c79fefe63fb33258281db4746901c4585\axi4lite_arbiter_top.\r_rdata_demux[2]' from process `$paramod$20bf198c79fefe63fb33258281db4746901c4585\axi4lite_arbiter_top.$proc$axi4lite_arbiter_top.sv:0$766'.
No latch inferred for signal `$paramod$20bf198c79fefe63fb33258281db4746901c4585\axi4lite_arbiter_top.\r_rdata_demux[3]' from process `$paramod$20bf198c79fefe63fb33258281db4746901c4585\axi4lite_arbiter_top.$proc$axi4lite_arbiter_top.sv:0$766'.
No latch inferred for signal `$paramod$20bf198c79fefe63fb33258281db4746901c4585\axi4lite_arbiter_top.\r_rresp_demux[0]' from process `$paramod$20bf198c79fefe63fb33258281db4746901c4585\axi4lite_arbiter_top.$proc$axi4lite_arbiter_top.sv:0$766'.
No latch inferred for signal `$paramod$20bf198c79fefe63fb33258281db4746901c4585\axi4lite_arbiter_top.\r_rresp_demux[1]' from process `$paramod$20bf198c79fefe63fb33258281db4746901c4585\axi4lite_arbiter_top.$proc$axi4lite_arbiter_top.sv:0$766'.
No latch inferred for signal `$paramod$20bf198c79fefe63fb33258281db4746901c4585\axi4lite_arbiter_top.\r_rresp_demux[2]' from process `$paramod$20bf198c79fefe63fb33258281db4746901c4585\axi4lite_arbiter_top.$proc$axi4lite_arbiter_top.sv:0$766'.
No latch inferred for signal `$paramod$20bf198c79fefe63fb33258281db4746901c4585\axi4lite_arbiter_top.\r_rresp_demux[3]' from process `$paramod$20bf198c79fefe63fb33258281db4746901c4585\axi4lite_arbiter_top.$proc$axi4lite_arbiter_top.sv:0$766'.
No latch inferred for signal `$paramod$20bf198c79fefe63fb33258281db4746901c4585\axi4lite_arbiter_top.$mem2reg_wr$\r_rdata_demux$axi4lite_arbiter_top.sv:682$570_ADDR' from process `$paramod$20bf198c79fefe63fb33258281db4746901c4585\axi4lite_arbiter_top.$proc$axi4lite_arbiter_top.sv:0$766'.
No latch inferred for signal `$paramod$20bf198c79fefe63fb33258281db4746901c4585\axi4lite_arbiter_top.$mem2reg_wr$\r_rdata_demux$axi4lite_arbiter_top.sv:682$570_DATA' from process `$paramod$20bf198c79fefe63fb33258281db4746901c4585\axi4lite_arbiter_top.$proc$axi4lite_arbiter_top.sv:0$766'.
No latch inferred for signal `$paramod$20bf198c79fefe63fb33258281db4746901c4585\axi4lite_arbiter_top.$mem2reg_wr$\r_rresp_demux$axi4lite_arbiter_top.sv:683$571_ADDR' from process `$paramod$20bf198c79fefe63fb33258281db4746901c4585\axi4lite_arbiter_top.$proc$axi4lite_arbiter_top.sv:0$766'.
No latch inferred for signal `$paramod$20bf198c79fefe63fb33258281db4746901c4585\axi4lite_arbiter_top.$mem2reg_wr$\r_rresp_demux$axi4lite_arbiter_top.sv:683$571_DATA' from process `$paramod$20bf198c79fefe63fb33258281db4746901c4585\axi4lite_arbiter_top.$proc$axi4lite_arbiter_top.sv:0$766'.
No latch inferred for signal `$paramod$20bf198c79fefe63fb33258281db4746901c4585\axi4lite_arbiter_top.$mem2reg_wr$\r_rdata_demux$axi4lite_arbiter_top.sv:687$572_ADDR' from process `$paramod$20bf198c79fefe63fb33258281db4746901c4585\axi4lite_arbiter_top.$proc$axi4lite_arbiter_top.sv:0$766'.
No latch inferred for signal `$paramod$20bf198c79fefe63fb33258281db4746901c4585\axi4lite_arbiter_top.$mem2reg_wr$\r_rdata_demux$axi4lite_arbiter_top.sv:687$572_DATA' from process `$paramod$20bf198c79fefe63fb33258281db4746901c4585\axi4lite_arbiter_top.$proc$axi4lite_arbiter_top.sv:0$766'.
No latch inferred for signal `$paramod$20bf198c79fefe63fb33258281db4746901c4585\axi4lite_arbiter_top.$mem2reg_wr$\r_rresp_demux$axi4lite_arbiter_top.sv:688$573_ADDR' from process `$paramod$20bf198c79fefe63fb33258281db4746901c4585\axi4lite_arbiter_top.$proc$axi4lite_arbiter_top.sv:0$766'.
No latch inferred for signal `$paramod$20bf198c79fefe63fb33258281db4746901c4585\axi4lite_arbiter_top.$mem2reg_wr$\r_rresp_demux$axi4lite_arbiter_top.sv:688$573_DATA' from process `$paramod$20bf198c79fefe63fb33258281db4746901c4585\axi4lite_arbiter_top.$proc$axi4lite_arbiter_top.sv:0$766'.
No latch inferred for signal `$paramod$20bf198c79fefe63fb33258281db4746901c4585\axi4lite_arbiter_top.$mem2reg_wr$\r_rdata_demux$axi4lite_arbiter_top.sv:692$574_ADDR' from process `$paramod$20bf198c79fefe63fb33258281db4746901c4585\axi4lite_arbiter_top.$proc$axi4lite_arbiter_top.sv:0$766'.
No latch inferred for signal `$paramod$20bf198c79fefe63fb33258281db4746901c4585\axi4lite_arbiter_top.$mem2reg_wr$\r_rdata_demux$axi4lite_arbiter_top.sv:692$574_DATA' from process `$paramod$20bf198c79fefe63fb33258281db4746901c4585\axi4lite_arbiter_top.$proc$axi4lite_arbiter_top.sv:0$766'.
No latch inferred for signal `$paramod$20bf198c79fefe63fb33258281db4746901c4585\axi4lite_arbiter_top.$mem2reg_wr$\r_rresp_demux$axi4lite_arbiter_top.sv:693$575_ADDR' from process `$paramod$20bf198c79fefe63fb33258281db4746901c4585\axi4lite_arbiter_top.$proc$axi4lite_arbiter_top.sv:0$766'.
No latch inferred for signal `$paramod$20bf198c79fefe63fb33258281db4746901c4585\axi4lite_arbiter_top.$mem2reg_wr$\r_rresp_demux$axi4lite_arbiter_top.sv:693$575_DATA' from process `$paramod$20bf198c79fefe63fb33258281db4746901c4585\axi4lite_arbiter_top.$proc$axi4lite_arbiter_top.sv:0$766'.
No latch inferred for signal `$paramod$20bf198c79fefe63fb33258281db4746901c4585\axi4lite_arbiter_top.\r_owner_rready' from process `$paramod$20bf198c79fefe63fb33258281db4746901c4585\axi4lite_arbiter_top.$proc$axi4lite_arbiter_top.sv:0$736'.
No latch inferred for signal `$paramod$20bf198c79fefe63fb33258281db4746901c4585\axi4lite_arbiter_top.\r_target_arready' from process `$paramod$20bf198c79fefe63fb33258281db4746901c4585\axi4lite_arbiter_top.$proc$axi4lite_arbiter_top.sv:0$735'.
No latch inferred for signal `$paramod$20bf198c79fefe63fb33258281db4746901c4585\axi4lite_arbiter_top.\r_target_rvalid' from process `$paramod$20bf198c79fefe63fb33258281db4746901c4585\axi4lite_arbiter_top.$proc$axi4lite_arbiter_top.sv:0$735'.
No latch inferred for signal `$paramod$20bf198c79fefe63fb33258281db4746901c4585\axi4lite_arbiter_top.\r_eval_addr' from process `$paramod$20bf198c79fefe63fb33258281db4746901c4585\axi4lite_arbiter_top.$proc$axi4lite_arbiter_top.sv:0$734'.
No latch inferred for signal `$paramod$20bf198c79fefe63fb33258281db4746901c4585\axi4lite_arbiter_top.\w_awready_demux' from process `$paramod$20bf198c79fefe63fb33258281db4746901c4585\axi4lite_arbiter_top.$proc$axi4lite_arbiter_top.sv:0$609'.
No latch inferred for signal `$paramod$20bf198c79fefe63fb33258281db4746901c4585\axi4lite_arbiter_top.\w_wready_demux' from process `$paramod$20bf198c79fefe63fb33258281db4746901c4585\axi4lite_arbiter_top.$proc$axi4lite_arbiter_top.sv:0$609'.
No latch inferred for signal `$paramod$20bf198c79fefe63fb33258281db4746901c4585\axi4lite_arbiter_top.\w_bvalid_demux' from process `$paramod$20bf198c79fefe63fb33258281db4746901c4585\axi4lite_arbiter_top.$proc$axi4lite_arbiter_top.sv:0$609'.
No latch inferred for signal `$paramod$20bf198c79fefe63fb33258281db4746901c4585\axi4lite_arbiter_top.\s0_awvalid_mux' from process `$paramod$20bf198c79fefe63fb33258281db4746901c4585\axi4lite_arbiter_top.$proc$axi4lite_arbiter_top.sv:0$609'.
No latch inferred for signal `$paramod$20bf198c79fefe63fb33258281db4746901c4585\axi4lite_arbiter_top.\s1_awvalid_mux' from process `$paramod$20bf198c79fefe63fb33258281db4746901c4585\axi4lite_arbiter_top.$proc$axi4lite_arbiter_top.sv:0$609'.
No latch inferred for signal `$paramod$20bf198c79fefe63fb33258281db4746901c4585\axi4lite_arbiter_top.\s0_wvalid_mux' from process `$paramod$20bf198c79fefe63fb33258281db4746901c4585\axi4lite_arbiter_top.$proc$axi4lite_arbiter_top.sv:0$609'.
No latch inferred for signal `$paramod$20bf198c79fefe63fb33258281db4746901c4585\axi4lite_arbiter_top.\s1_wvalid_mux' from process `$paramod$20bf198c79fefe63fb33258281db4746901c4585\axi4lite_arbiter_top.$proc$axi4lite_arbiter_top.sv:0$609'.
No latch inferred for signal `$paramod$20bf198c79fefe63fb33258281db4746901c4585\axi4lite_arbiter_top.\s0_bready_mux' from process `$paramod$20bf198c79fefe63fb33258281db4746901c4585\axi4lite_arbiter_top.$proc$axi4lite_arbiter_top.sv:0$609'.
No latch inferred for signal `$paramod$20bf198c79fefe63fb33258281db4746901c4585\axi4lite_arbiter_top.\s1_bready_mux' from process `$paramod$20bf198c79fefe63fb33258281db4746901c4585\axi4lite_arbiter_top.$proc$axi4lite_arbiter_top.sv:0$609'.
No latch inferred for signal `$paramod$20bf198c79fefe63fb33258281db4746901c4585\axi4lite_arbiter_top.$fordecl_block$1.i' from process `$paramod$20bf198c79fefe63fb33258281db4746901c4585\axi4lite_arbiter_top.$proc$axi4lite_arbiter_top.sv:0$609'.
No latch inferred for signal `$paramod$20bf198c79fefe63fb33258281db4746901c4585\axi4lite_arbiter_top.$bitselwrite$pos$axi4lite_arbiter_top.sv:402$546' from process `$paramod$20bf198c79fefe63fb33258281db4746901c4585\axi4lite_arbiter_top.$proc$axi4lite_arbiter_top.sv:0$609'.
No latch inferred for signal `$paramod$20bf198c79fefe63fb33258281db4746901c4585\axi4lite_arbiter_top.$bitselwrite$pos$axi4lite_arbiter_top.sv:406$547' from process `$paramod$20bf198c79fefe63fb33258281db4746901c4585\axi4lite_arbiter_top.$proc$axi4lite_arbiter_top.sv:0$609'.
No latch inferred for signal `$paramod$20bf198c79fefe63fb33258281db4746901c4585\axi4lite_arbiter_top.$bitselwrite$pos$axi4lite_arbiter_top.sv:409$548' from process `$paramod$20bf198c79fefe63fb33258281db4746901c4585\axi4lite_arbiter_top.$proc$axi4lite_arbiter_top.sv:0$609'.
No latch inferred for signal `$paramod$20bf198c79fefe63fb33258281db4746901c4585\axi4lite_arbiter_top.$bitselwrite$pos$axi4lite_arbiter_top.sv:416$549' from process `$paramod$20bf198c79fefe63fb33258281db4746901c4585\axi4lite_arbiter_top.$proc$axi4lite_arbiter_top.sv:0$609'.
No latch inferred for signal `$paramod$20bf198c79fefe63fb33258281db4746901c4585\axi4lite_arbiter_top.$bitselwrite$pos$axi4lite_arbiter_top.sv:420$550' from process `$paramod$20bf198c79fefe63fb33258281db4746901c4585\axi4lite_arbiter_top.$proc$axi4lite_arbiter_top.sv:0$609'.
No latch inferred for signal `$paramod$20bf198c79fefe63fb33258281db4746901c4585\axi4lite_arbiter_top.$bitselwrite$pos$axi4lite_arbiter_top.sv:423$551' from process `$paramod$20bf198c79fefe63fb33258281db4746901c4585\axi4lite_arbiter_top.$proc$axi4lite_arbiter_top.sv:0$609'.
No latch inferred for signal `$paramod$20bf198c79fefe63fb33258281db4746901c4585\axi4lite_arbiter_top.$bitselwrite$pos$axi4lite_arbiter_top.sv:430$552' from process `$paramod$20bf198c79fefe63fb33258281db4746901c4585\axi4lite_arbiter_top.$proc$axi4lite_arbiter_top.sv:0$609'.
No latch inferred for signal `$paramod$20bf198c79fefe63fb33258281db4746901c4585\axi4lite_arbiter_top.$bitselwrite$pos$axi4lite_arbiter_top.sv:434$553' from process `$paramod$20bf198c79fefe63fb33258281db4746901c4585\axi4lite_arbiter_top.$proc$axi4lite_arbiter_top.sv:0$609'.
No latch inferred for signal `$paramod$20bf198c79fefe63fb33258281db4746901c4585\axi4lite_arbiter_top.$bitselwrite$pos$axi4lite_arbiter_top.sv:438$554' from process `$paramod$20bf198c79fefe63fb33258281db4746901c4585\axi4lite_arbiter_top.$proc$axi4lite_arbiter_top.sv:0$609'.
No latch inferred for signal `$paramod$20bf198c79fefe63fb33258281db4746901c4585\axi4lite_arbiter_top.\w_bresp_demux[0]' from process `$paramod$20bf198c79fefe63fb33258281db4746901c4585\axi4lite_arbiter_top.$proc$axi4lite_arbiter_top.sv:0$609'.
No latch inferred for signal `$paramod$20bf198c79fefe63fb33258281db4746901c4585\axi4lite_arbiter_top.\w_bresp_demux[1]' from process `$paramod$20bf198c79fefe63fb33258281db4746901c4585\axi4lite_arbiter_top.$proc$axi4lite_arbiter_top.sv:0$609'.
No latch inferred for signal `$paramod$20bf198c79fefe63fb33258281db4746901c4585\axi4lite_arbiter_top.\w_bresp_demux[2]' from process `$paramod$20bf198c79fefe63fb33258281db4746901c4585\axi4lite_arbiter_top.$proc$axi4lite_arbiter_top.sv:0$609'.
No latch inferred for signal `$paramod$20bf198c79fefe63fb33258281db4746901c4585\axi4lite_arbiter_top.\w_bresp_demux[3]' from process `$paramod$20bf198c79fefe63fb33258281db4746901c4585\axi4lite_arbiter_top.$proc$axi4lite_arbiter_top.sv:0$609'.
No latch inferred for signal `$paramod$20bf198c79fefe63fb33258281db4746901c4585\axi4lite_arbiter_top.$mem2reg_wr$\w_bresp_demux$axi4lite_arbiter_top.sv:431$564_ADDR' from process `$paramod$20bf198c79fefe63fb33258281db4746901c4585\axi4lite_arbiter_top.$proc$axi4lite_arbiter_top.sv:0$609'.
No latch inferred for signal `$paramod$20bf198c79fefe63fb33258281db4746901c4585\axi4lite_arbiter_top.$mem2reg_wr$\w_bresp_demux$axi4lite_arbiter_top.sv:431$564_DATA' from process `$paramod$20bf198c79fefe63fb33258281db4746901c4585\axi4lite_arbiter_top.$proc$axi4lite_arbiter_top.sv:0$609'.
No latch inferred for signal `$paramod$20bf198c79fefe63fb33258281db4746901c4585\axi4lite_arbiter_top.$mem2reg_wr$\w_bresp_demux$axi4lite_arbiter_top.sv:435$565_ADDR' from process `$paramod$20bf198c79fefe63fb33258281db4746901c4585\axi4lite_arbiter_top.$proc$axi4lite_arbiter_top.sv:0$609'.
No latch inferred for signal `$paramod$20bf198c79fefe63fb33258281db4746901c4585\axi4lite_arbiter_top.$mem2reg_wr$\w_bresp_demux$axi4lite_arbiter_top.sv:435$565_DATA' from process `$paramod$20bf198c79fefe63fb33258281db4746901c4585\axi4lite_arbiter_top.$proc$axi4lite_arbiter_top.sv:0$609'.
No latch inferred for signal `$paramod$20bf198c79fefe63fb33258281db4746901c4585\axi4lite_arbiter_top.$mem2reg_wr$\w_bresp_demux$axi4lite_arbiter_top.sv:439$566_ADDR' from process `$paramod$20bf198c79fefe63fb33258281db4746901c4585\axi4lite_arbiter_top.$proc$axi4lite_arbiter_top.sv:0$609'.
No latch inferred for signal `$paramod$20bf198c79fefe63fb33258281db4746901c4585\axi4lite_arbiter_top.$mem2reg_wr$\w_bresp_demux$axi4lite_arbiter_top.sv:439$566_DATA' from process `$paramod$20bf198c79fefe63fb33258281db4746901c4585\axi4lite_arbiter_top.$proc$axi4lite_arbiter_top.sv:0$609'.
No latch inferred for signal `$paramod$20bf198c79fefe63fb33258281db4746901c4585\axi4lite_arbiter_top.\w_owner_wdata' from process `$paramod$20bf198c79fefe63fb33258281db4746901c4585\axi4lite_arbiter_top.$proc$axi4lite_arbiter_top.sv:0$578'.
No latch inferred for signal `$paramod$20bf198c79fefe63fb33258281db4746901c4585\axi4lite_arbiter_top.\w_owner_wstrb' from process `$paramod$20bf198c79fefe63fb33258281db4746901c4585\axi4lite_arbiter_top.$proc$axi4lite_arbiter_top.sv:0$578'.
No latch inferred for signal `$paramod$20bf198c79fefe63fb33258281db4746901c4585\axi4lite_arbiter_top.\w_owner_wvalid' from process `$paramod$20bf198c79fefe63fb33258281db4746901c4585\axi4lite_arbiter_top.$proc$axi4lite_arbiter_top.sv:0$578'.
No latch inferred for signal `$paramod$20bf198c79fefe63fb33258281db4746901c4585\axi4lite_arbiter_top.\w_owner_bready' from process `$paramod$20bf198c79fefe63fb33258281db4746901c4585\axi4lite_arbiter_top.$proc$axi4lite_arbiter_top.sv:0$578'.
No latch inferred for signal `$paramod$20bf198c79fefe63fb33258281db4746901c4585\axi4lite_arbiter_top.\w_target_awready' from process `$paramod$20bf198c79fefe63fb33258281db4746901c4585\axi4lite_arbiter_top.$proc$axi4lite_arbiter_top.sv:0$577'.
No latch inferred for signal `$paramod$20bf198c79fefe63fb33258281db4746901c4585\axi4lite_arbiter_top.\w_target_wready' from process `$paramod$20bf198c79fefe63fb33258281db4746901c4585\axi4lite_arbiter_top.$proc$axi4lite_arbiter_top.sv:0$577'.
No latch inferred for signal `$paramod$20bf198c79fefe63fb33258281db4746901c4585\axi4lite_arbiter_top.\w_target_bvalid' from process `$paramod$20bf198c79fefe63fb33258281db4746901c4585\axi4lite_arbiter_top.$proc$axi4lite_arbiter_top.sv:0$577'.
No latch inferred for signal `$paramod$20bf198c79fefe63fb33258281db4746901c4585\axi4lite_arbiter_top.\w_eval_addr' from process `$paramod$20bf198c79fefe63fb33258281db4746901c4585\axi4lite_arbiter_top.$proc$axi4lite_arbiter_top.sv:0$576'.

5.3.9. Executing PROC_DFF pass (convert process syncs to FFs).
Creating register for signal `$paramod$508cca98229eff1b70362476b43647777eac3ce1\qos_arbiter.\starvation_flag' using process `$paramod$508cca98229eff1b70362476b43647777eac3ce1\qos_arbiter.$proc$qos_arbiter.sv:179$928'.
  created $adff cell `$procdff$4581' with positive edge clock and positive level reset.
Creating register for signal `$paramod$508cca98229eff1b70362476b43647777eac3ce1\qos_arbiter.\current_master' using process `$paramod$508cca98229eff1b70362476b43647777eac3ce1\qos_arbiter.$proc$qos_arbiter.sv:179$928'.
  created $adff cell `$procdff$4586' with positive edge clock and positive level reset.
Creating register for signal `$paramod$508cca98229eff1b70362476b43647777eac3ce1\qos_arbiter.\is_active' using process `$paramod$508cca98229eff1b70362476b43647777eac3ce1\qos_arbiter.$proc$qos_arbiter.sv:179$928'.
  created $adff cell `$procdff$4591' with positive edge clock and positive level reset.
Creating register for signal `$paramod$508cca98229eff1b70362476b43647777eac3ce1\qos_arbiter.\quota_1' using process `$paramod$508cca98229eff1b70362476b43647777eac3ce1\qos_arbiter.$proc$qos_arbiter.sv:179$928'.
  created $adff cell `$procdff$4596' with positive edge clock and positive level reset.
Creating register for signal `$paramod$508cca98229eff1b70362476b43647777eac3ce1\qos_arbiter.\quota_2' using process `$paramod$508cca98229eff1b70362476b43647777eac3ce1\qos_arbiter.$proc$qos_arbiter.sv:179$928'.
  created $adff cell `$procdff$4601' with positive edge clock and positive level reset.
Creating register for signal `$paramod$508cca98229eff1b70362476b43647777eac3ce1\qos_arbiter.\quota_3' using process `$paramod$508cca98229eff1b70362476b43647777eac3ce1\qos_arbiter.$proc$qos_arbiter.sv:179$928'.
  created $adff cell `$procdff$4606' with positive edge clock and positive level reset.
Creating register for signal `$paramod$508cca98229eff1b70362476b43647777eac3ce1\qos_arbiter.\rr_ptr' using process `$paramod$508cca98229eff1b70362476b43647777eac3ce1\qos_arbiter.$proc$qos_arbiter.sv:179$928'.
  created $adff cell `$procdff$4611' with positive edge clock and positive level reset.
Creating register for signal `$paramod$508cca98229eff1b70362476b43647777eac3ce1\qos_arbiter.\age_counter' using process `$paramod$508cca98229eff1b70362476b43647777eac3ce1\qos_arbiter.$proc$qos_arbiter.sv:179$928'.
  created $adff cell `$procdff$4616' with positive edge clock and positive level reset.
Creating register for signal `$paramod$20bf198c79fefe63fb33258281db4746901c4585\axi4lite_arbiter_top.\r_state' using process `$paramod$20bf198c79fefe63fb33258281db4746901c4585\axi4lite_arbiter_top.$proc$axi4lite_arbiter_top.sv:589$737'.
  created $adff cell `$procdff$4621' with positive edge clock and positive level reset.
Creating register for signal `$paramod$20bf198c79fefe63fb33258281db4746901c4585\axi4lite_arbiter_top.\r_owner_m_id' using process `$paramod$20bf198c79fefe63fb33258281db4746901c4585\axi4lite_arbiter_top.$proc$axi4lite_arbiter_top.sv:589$737'.
  created $adff cell `$procdff$4626' with positive edge clock and positive level reset.
Creating register for signal `$paramod$20bf198c79fefe63fb33258281db4746901c4585\axi4lite_arbiter_top.\r_target_slave_sel' using process `$paramod$20bf198c79fefe63fb33258281db4746901c4585\axi4lite_arbiter_top.$proc$axi4lite_arbiter_top.sv:589$737'.
  created $adff cell `$procdff$4631' with positive edge clock and positive level reset.
Creating register for signal `$paramod$20bf198c79fefe63fb33258281db4746901c4585\axi4lite_arbiter_top.\r_target_invalid' using process `$paramod$20bf198c79fefe63fb33258281db4746901c4585\axi4lite_arbiter_top.$proc$axi4lite_arbiter_top.sv:589$737'.
  created $adff cell `$procdff$4636' with positive edge clock and positive level reset.
Creating register for signal `$paramod$20bf198c79fefe63fb33258281db4746901c4585\axi4lite_arbiter_top.\r_latched_addr' using process `$paramod$20bf198c79fefe63fb33258281db4746901c4585\axi4lite_arbiter_top.$proc$axi4lite_arbiter_top.sv:589$737'.
  created $adff cell `$procdff$4641' with positive edge clock and positive level reset.
Creating register for signal `$paramod$20bf198c79fefe63fb33258281db4746901c4585\axi4lite_arbiter_top.\r_latched_prot' using process `$paramod$20bf198c79fefe63fb33258281db4746901c4585\axi4lite_arbiter_top.$proc$axi4lite_arbiter_top.sv:589$737'.
  created $adff cell `$procdff$4646' with positive edge clock and positive level reset.
Creating register for signal `$paramod$20bf198c79fefe63fb33258281db4746901c4585\axi4lite_arbiter_top.\read_arb_tx_done' using process `$paramod$20bf198c79fefe63fb33258281db4746901c4585\axi4lite_arbiter_top.$proc$axi4lite_arbiter_top.sv:589$737'.
  created $adff cell `$procdff$4651' with positive edge clock and positive level reset.
Creating register for signal `$paramod$20bf198c79fefe63fb33258281db4746901c4585\axi4lite_arbiter_top.$mem2reg_rd$\m_arvalid$axi4lite_arbiter_top.sv:603$567_ADDR' using process `$paramod$20bf198c79fefe63fb33258281db4746901c4585\axi4lite_arbiter_top.$proc$axi4lite_arbiter_top.sv:589$737'.
  created $adff cell `$procdff$4656' with positive edge clock and positive level reset.
Creating register for signal `$paramod$20bf198c79fefe63fb33258281db4746901c4585\axi4lite_arbiter_top.$mem2reg_rd$\m_arvalid$axi4lite_arbiter_top.sv:603$567_DATA' using process `$paramod$20bf198c79fefe63fb33258281db4746901c4585\axi4lite_arbiter_top.$proc$axi4lite_arbiter_top.sv:589$737'.
  created $adff cell `$procdff$4661' with positive edge clock and positive level reset.
Creating register for signal `$paramod$20bf198c79fefe63fb33258281db4746901c4585\axi4lite_arbiter_top.$mem2reg_rd$\m_araddr$axi4lite_arbiter_top.sv:605$568_ADDR' using process `$paramod$20bf198c79fefe63fb33258281db4746901c4585\axi4lite_arbiter_top.$proc$axi4lite_arbiter_top.sv:589$737'.
  created $adff cell `$procdff$4666' with positive edge clock and positive level reset.
Creating register for signal `$paramod$20bf198c79fefe63fb33258281db4746901c4585\axi4lite_arbiter_top.$mem2reg_rd$\m_araddr$axi4lite_arbiter_top.sv:605$568_DATA' using process `$paramod$20bf198c79fefe63fb33258281db4746901c4585\axi4lite_arbiter_top.$proc$axi4lite_arbiter_top.sv:589$737'.
  created $adff cell `$procdff$4671' with positive edge clock and positive level reset.
Creating register for signal `$paramod$20bf198c79fefe63fb33258281db4746901c4585\axi4lite_arbiter_top.$mem2reg_rd$\m_arprot$axi4lite_arbiter_top.sv:606$569_ADDR' using process `$paramod$20bf198c79fefe63fb33258281db4746901c4585\axi4lite_arbiter_top.$proc$axi4lite_arbiter_top.sv:589$737'.
  created $adff cell `$procdff$4676' with positive edge clock and positive level reset.
Creating register for signal `$paramod$20bf198c79fefe63fb33258281db4746901c4585\axi4lite_arbiter_top.$mem2reg_rd$\m_arprot$axi4lite_arbiter_top.sv:606$569_DATA' using process `$paramod$20bf198c79fefe63fb33258281db4746901c4585\axi4lite_arbiter_top.$proc$axi4lite_arbiter_top.sv:589$737'.
  created $adff cell `$procdff$4681' with positive edge clock and positive level reset.
Creating register for signal `$paramod$20bf198c79fefe63fb33258281db4746901c4585\axi4lite_arbiter_top.\w_state' using process `$paramod$20bf198c79fefe63fb33258281db4746901c4585\axi4lite_arbiter_top.$proc$axi4lite_arbiter_top.sv:313$579'.
  created $adff cell `$procdff$4686' with positive edge clock and positive level reset.
Creating register for signal `$paramod$20bf198c79fefe63fb33258281db4746901c4585\axi4lite_arbiter_top.\w_owner_m_id' using process `$paramod$20bf198c79fefe63fb33258281db4746901c4585\axi4lite_arbiter_top.$proc$axi4lite_arbiter_top.sv:313$579'.
  created $adff cell `$procdff$4691' with positive edge clock and positive level reset.
Creating register for signal `$paramod$20bf198c79fefe63fb33258281db4746901c4585\axi4lite_arbiter_top.\w_target_slave_sel' using process `$paramod$20bf198c79fefe63fb33258281db4746901c4585\axi4lite_arbiter_top.$proc$axi4lite_arbiter_top.sv:313$579'.
  created $adff cell `$procdff$4696' with positive edge clock and positive level reset.
Creating register for signal `$paramod$20bf198c79fefe63fb33258281db4746901c4585\axi4lite_arbiter_top.\w_target_invalid' using process `$paramod$20bf198c79fefe63fb33258281db4746901c4585\axi4lite_arbiter_top.$proc$axi4lite_arbiter_top.sv:313$579'.
  created $adff cell `$procdff$4701' with positive edge clock and positive level reset.
Creating register for signal `$paramod$20bf198c79fefe63fb33258281db4746901c4585\axi4lite_arbiter_top.\w_latched_addr' using process `$paramod$20bf198c79fefe63fb33258281db4746901c4585\axi4lite_arbiter_top.$proc$axi4lite_arbiter_top.sv:313$579'.
  created $adff cell `$procdff$4706' with positive edge clock and positive level reset.
Creating register for signal `$paramod$20bf198c79fefe63fb33258281db4746901c4585\axi4lite_arbiter_top.\w_latched_prot' using process `$paramod$20bf198c79fefe63fb33258281db4746901c4585\axi4lite_arbiter_top.$proc$axi4lite_arbiter_top.sv:313$579'.
  created $adff cell `$procdff$4711' with positive edge clock and positive level reset.
Creating register for signal `$paramod$20bf198c79fefe63fb33258281db4746901c4585\axi4lite_arbiter_top.\write_arb_tx_done' using process `$paramod$20bf198c79fefe63fb33258281db4746901c4585\axi4lite_arbiter_top.$proc$axi4lite_arbiter_top.sv:313$579'.
  created $adff cell `$procdff$4716' with positive edge clock and positive level reset.
Creating register for signal `$paramod$20bf198c79fefe63fb33258281db4746901c4585\axi4lite_arbiter_top.$mem2reg_rd$\m_awvalid$axi4lite_arbiter_top.sv:327$561_ADDR' using process `$paramod$20bf198c79fefe63fb33258281db4746901c4585\axi4lite_arbiter_top.$proc$axi4lite_arbiter_top.sv:313$579'.
  created $adff cell `$procdff$4721' with positive edge clock and positive level reset.
Creating register for signal `$paramod$20bf198c79fefe63fb33258281db4746901c4585\axi4lite_arbiter_top.$mem2reg_rd$\m_awvalid$axi4lite_arbiter_top.sv:327$561_DATA' using process `$paramod$20bf198c79fefe63fb33258281db4746901c4585\axi4lite_arbiter_top.$proc$axi4lite_arbiter_top.sv:313$579'.
  created $adff cell `$procdff$4726' with positive edge clock and positive level reset.
Creating register for signal `$paramod$20bf198c79fefe63fb33258281db4746901c4585\axi4lite_arbiter_top.$mem2reg_rd$\m_awaddr$axi4lite_arbiter_top.sv:329$562_ADDR' using process `$paramod$20bf198c79fefe63fb33258281db4746901c4585\axi4lite_arbiter_top.$proc$axi4lite_arbiter_top.sv:313$579'.
  created $adff cell `$procdff$4731' with positive edge clock and positive level reset.
Creating register for signal `$paramod$20bf198c79fefe63fb33258281db4746901c4585\axi4lite_arbiter_top.$mem2reg_rd$\m_awaddr$axi4lite_arbiter_top.sv:329$562_DATA' using process `$paramod$20bf198c79fefe63fb33258281db4746901c4585\axi4lite_arbiter_top.$proc$axi4lite_arbiter_top.sv:313$579'.
  created $adff cell `$procdff$4736' with positive edge clock and positive level reset.
Creating register for signal `$paramod$20bf198c79fefe63fb33258281db4746901c4585\axi4lite_arbiter_top.$mem2reg_rd$\m_awprot$axi4lite_arbiter_top.sv:330$563_ADDR' using process `$paramod$20bf198c79fefe63fb33258281db4746901c4585\axi4lite_arbiter_top.$proc$axi4lite_arbiter_top.sv:313$579'.
  created $adff cell `$procdff$4741' with positive edge clock and positive level reset.
Creating register for signal `$paramod$20bf198c79fefe63fb33258281db4746901c4585\axi4lite_arbiter_top.$mem2reg_rd$\m_awprot$axi4lite_arbiter_top.sv:330$563_DATA' using process `$paramod$20bf198c79fefe63fb33258281db4746901c4585\axi4lite_arbiter_top.$proc$axi4lite_arbiter_top.sv:313$579'.
  created $adff cell `$procdff$4746' with positive edge clock and positive level reset.
Creating register for signal `\arbiter_formal.$past$arbiter_formal.sv:194$65$0' using process `\arbiter_formal.$proc$arbiter_formal.sv:191$507'.
  created $dff cell `$procdff$4747' with positive edge clock.
Creating register for signal `\arbiter_formal.$past$arbiter_formal.sv:194$66$0' using process `\arbiter_formal.$proc$arbiter_formal.sv:191$507'.
  created $dff cell `$procdff$4748' with positive edge clock.
Creating register for signal `\arbiter_formal.$past$arbiter_formal.sv:196$67$0' using process `\arbiter_formal.$proc$arbiter_formal.sv:191$507'.
  created $dff cell `$procdff$4749' with positive edge clock.
Creating register for signal `\arbiter_formal.$past$arbiter_formal.sv:200$68$0' using process `\arbiter_formal.$proc$arbiter_formal.sv:191$507'.
  created $dff cell `$procdff$4750' with positive edge clock.
Creating register for signal `\arbiter_formal.$past$arbiter_formal.sv:200$69$0' using process `\arbiter_formal.$proc$arbiter_formal.sv:191$507'.
  created $dff cell `$procdff$4751' with positive edge clock.
Creating register for signal `\arbiter_formal.$past$arbiter_formal.sv:202$70$0' using process `\arbiter_formal.$proc$arbiter_formal.sv:191$507'.
  created $dff cell `$procdff$4752' with positive edge clock.
Creating register for signal `\arbiter_formal.$past$arbiter_formal.sv:203$71$0' using process `\arbiter_formal.$proc$arbiter_formal.sv:191$507'.
  created $dff cell `$procdff$4753' with positive edge clock.
Creating register for signal `\arbiter_formal.$past$arbiter_formal.sv:207$72$0' using process `\arbiter_formal.$proc$arbiter_formal.sv:191$507'.
  created $dff cell `$procdff$4754' with positive edge clock.
Creating register for signal `\arbiter_formal.$past$arbiter_formal.sv:207$73$0' using process `\arbiter_formal.$proc$arbiter_formal.sv:191$507'.
  created $dff cell `$procdff$4755' with positive edge clock.
Creating register for signal `\arbiter_formal.$past$arbiter_formal.sv:207$74$0' using process `\arbiter_formal.$proc$arbiter_formal.sv:191$507'.
  created $dff cell `$procdff$4756' with positive edge clock.
Creating register for signal `\arbiter_formal.$past$arbiter_formal.sv:210$75$0' using process `\arbiter_formal.$proc$arbiter_formal.sv:191$507'.
  created $dff cell `$procdff$4757' with positive edge clock.
Creating register for signal `\arbiter_formal.$past$arbiter_formal.sv:210$76$0' using process `\arbiter_formal.$proc$arbiter_formal.sv:191$507'.
  created $dff cell `$procdff$4758' with positive edge clock.
Creating register for signal `\arbiter_formal.$past$arbiter_formal.sv:194$53$0' using process `\arbiter_formal.$proc$arbiter_formal.sv:191$469'.
  created $dff cell `$procdff$4759' with positive edge clock.
Creating register for signal `\arbiter_formal.$past$arbiter_formal.sv:194$54$0' using process `\arbiter_formal.$proc$arbiter_formal.sv:191$469'.
  created $dff cell `$procdff$4760' with positive edge clock.
Creating register for signal `\arbiter_formal.$past$arbiter_formal.sv:196$55$0' using process `\arbiter_formal.$proc$arbiter_formal.sv:191$469'.
  created $dff cell `$procdff$4761' with positive edge clock.
Creating register for signal `\arbiter_formal.$past$arbiter_formal.sv:200$56$0' using process `\arbiter_formal.$proc$arbiter_formal.sv:191$469'.
  created $dff cell `$procdff$4762' with positive edge clock.
Creating register for signal `\arbiter_formal.$past$arbiter_formal.sv:200$57$0' using process `\arbiter_formal.$proc$arbiter_formal.sv:191$469'.
  created $dff cell `$procdff$4763' with positive edge clock.
Creating register for signal `\arbiter_formal.$past$arbiter_formal.sv:202$58$0' using process `\arbiter_formal.$proc$arbiter_formal.sv:191$469'.
  created $dff cell `$procdff$4764' with positive edge clock.
Creating register for signal `\arbiter_formal.$past$arbiter_formal.sv:203$59$0' using process `\arbiter_formal.$proc$arbiter_formal.sv:191$469'.
  created $dff cell `$procdff$4765' with positive edge clock.
Creating register for signal `\arbiter_formal.$past$arbiter_formal.sv:207$60$0' using process `\arbiter_formal.$proc$arbiter_formal.sv:191$469'.
  created $dff cell `$procdff$4766' with positive edge clock.
Creating register for signal `\arbiter_formal.$past$arbiter_formal.sv:207$61$0' using process `\arbiter_formal.$proc$arbiter_formal.sv:191$469'.
  created $dff cell `$procdff$4767' with positive edge clock.
Creating register for signal `\arbiter_formal.$past$arbiter_formal.sv:207$62$0' using process `\arbiter_formal.$proc$arbiter_formal.sv:191$469'.
  created $dff cell `$procdff$4768' with positive edge clock.
Creating register for signal `\arbiter_formal.$past$arbiter_formal.sv:210$63$0' using process `\arbiter_formal.$proc$arbiter_formal.sv:191$469'.
  created $dff cell `$procdff$4769' with positive edge clock.
Creating register for signal `\arbiter_formal.$past$arbiter_formal.sv:210$64$0' using process `\arbiter_formal.$proc$arbiter_formal.sv:191$469'.
  created $dff cell `$procdff$4770' with positive edge clock.
Creating register for signal `\arbiter_formal.$past$arbiter_formal.sv:163$41$0' using process `\arbiter_formal.$proc$arbiter_formal.sv:160$434'.
  created $dff cell `$procdff$4771' with positive edge clock.
Creating register for signal `\arbiter_formal.$past$arbiter_formal.sv:163$42$0' using process `\arbiter_formal.$proc$arbiter_formal.sv:160$434'.
  created $dff cell `$procdff$4772' with positive edge clock.
Creating register for signal `\arbiter_formal.$past$arbiter_formal.sv:165$43$0' using process `\arbiter_formal.$proc$arbiter_formal.sv:160$434'.
  created $dff cell `$procdff$4773' with positive edge clock.
Creating register for signal `\arbiter_formal.$past$arbiter_formal.sv:166$44$0' using process `\arbiter_formal.$proc$arbiter_formal.sv:160$434'.
  created $dff cell `$procdff$4774' with positive edge clock.
Creating register for signal `\arbiter_formal.$past$arbiter_formal.sv:170$45$0' using process `\arbiter_formal.$proc$arbiter_formal.sv:160$434'.
  created $dff cell `$procdff$4775' with positive edge clock.
Creating register for signal `\arbiter_formal.$past$arbiter_formal.sv:170$46$0' using process `\arbiter_formal.$proc$arbiter_formal.sv:160$434'.
  created $dff cell `$procdff$4776' with positive edge clock.
Creating register for signal `\arbiter_formal.$past$arbiter_formal.sv:172$47$0' using process `\arbiter_formal.$proc$arbiter_formal.sv:160$434'.
  created $dff cell `$procdff$4777' with positive edge clock.
Creating register for signal `\arbiter_formal.$past$arbiter_formal.sv:173$48$0' using process `\arbiter_formal.$proc$arbiter_formal.sv:160$434'.
  created $dff cell `$procdff$4778' with positive edge clock.
Creating register for signal `\arbiter_formal.$past$arbiter_formal.sv:177$49$0' using process `\arbiter_formal.$proc$arbiter_formal.sv:160$434'.
  created $dff cell `$procdff$4779' with positive edge clock.
Creating register for signal `\arbiter_formal.$past$arbiter_formal.sv:177$50$0' using process `\arbiter_formal.$proc$arbiter_formal.sv:160$434'.
  created $dff cell `$procdff$4780' with positive edge clock.
Creating register for signal `\arbiter_formal.$past$arbiter_formal.sv:179$51$0' using process `\arbiter_formal.$proc$arbiter_formal.sv:160$434'.
  created $dff cell `$procdff$4781' with positive edge clock.
Creating register for signal `\arbiter_formal.$past$arbiter_formal.sv:180$52$0' using process `\arbiter_formal.$proc$arbiter_formal.sv:160$434'.
  created $dff cell `$procdff$4782' with positive edge clock.
Creating register for signal `\arbiter_formal.$past$arbiter_formal.sv:163$29$0' using process `\arbiter_formal.$proc$arbiter_formal.sv:160$399'.
  created $dff cell `$procdff$4783' with positive edge clock.
Creating register for signal `\arbiter_formal.$past$arbiter_formal.sv:163$30$0' using process `\arbiter_formal.$proc$arbiter_formal.sv:160$399'.
  created $dff cell `$procdff$4784' with positive edge clock.
Creating register for signal `\arbiter_formal.$past$arbiter_formal.sv:165$31$0' using process `\arbiter_formal.$proc$arbiter_formal.sv:160$399'.
  created $dff cell `$procdff$4785' with positive edge clock.
Creating register for signal `\arbiter_formal.$past$arbiter_formal.sv:166$32$0' using process `\arbiter_formal.$proc$arbiter_formal.sv:160$399'.
  created $dff cell `$procdff$4786' with positive edge clock.
Creating register for signal `\arbiter_formal.$past$arbiter_formal.sv:170$33$0' using process `\arbiter_formal.$proc$arbiter_formal.sv:160$399'.
  created $dff cell `$procdff$4787' with positive edge clock.
Creating register for signal `\arbiter_formal.$past$arbiter_formal.sv:170$34$0' using process `\arbiter_formal.$proc$arbiter_formal.sv:160$399'.
  created $dff cell `$procdff$4788' with positive edge clock.
Creating register for signal `\arbiter_formal.$past$arbiter_formal.sv:172$35$0' using process `\arbiter_formal.$proc$arbiter_formal.sv:160$399'.
  created $dff cell `$procdff$4789' with positive edge clock.
Creating register for signal `\arbiter_formal.$past$arbiter_formal.sv:173$36$0' using process `\arbiter_formal.$proc$arbiter_formal.sv:160$399'.
  created $dff cell `$procdff$4790' with positive edge clock.
Creating register for signal `\arbiter_formal.$past$arbiter_formal.sv:177$37$0' using process `\arbiter_formal.$proc$arbiter_formal.sv:160$399'.
  created $dff cell `$procdff$4791' with positive edge clock.
Creating register for signal `\arbiter_formal.$past$arbiter_formal.sv:177$38$0' using process `\arbiter_formal.$proc$arbiter_formal.sv:160$399'.
  created $dff cell `$procdff$4792' with positive edge clock.
Creating register for signal `\arbiter_formal.$past$arbiter_formal.sv:179$39$0' using process `\arbiter_formal.$proc$arbiter_formal.sv:160$399'.
  created $dff cell `$procdff$4793' with positive edge clock.
Creating register for signal `\arbiter_formal.$past$arbiter_formal.sv:180$40$0' using process `\arbiter_formal.$proc$arbiter_formal.sv:160$399'.
  created $dff cell `$procdff$4794' with positive edge clock.
Creating register for signal `\arbiter_formal.$past$arbiter_formal.sv:163$17$0' using process `\arbiter_formal.$proc$arbiter_formal.sv:160$364'.
  created $dff cell `$procdff$4795' with positive edge clock.
Creating register for signal `\arbiter_formal.$past$arbiter_formal.sv:163$18$0' using process `\arbiter_formal.$proc$arbiter_formal.sv:160$364'.
  created $dff cell `$procdff$4796' with positive edge clock.
Creating register for signal `\arbiter_formal.$past$arbiter_formal.sv:165$19$0' using process `\arbiter_formal.$proc$arbiter_formal.sv:160$364'.
  created $dff cell `$procdff$4797' with positive edge clock.
Creating register for signal `\arbiter_formal.$past$arbiter_formal.sv:166$20$0' using process `\arbiter_formal.$proc$arbiter_formal.sv:160$364'.
  created $dff cell `$procdff$4798' with positive edge clock.
Creating register for signal `\arbiter_formal.$past$arbiter_formal.sv:170$21$0' using process `\arbiter_formal.$proc$arbiter_formal.sv:160$364'.
  created $dff cell `$procdff$4799' with positive edge clock.
Creating register for signal `\arbiter_formal.$past$arbiter_formal.sv:170$22$0' using process `\arbiter_formal.$proc$arbiter_formal.sv:160$364'.
  created $dff cell `$procdff$4800' with positive edge clock.
Creating register for signal `\arbiter_formal.$past$arbiter_formal.sv:172$23$0' using process `\arbiter_formal.$proc$arbiter_formal.sv:160$364'.
  created $dff cell `$procdff$4801' with positive edge clock.
Creating register for signal `\arbiter_formal.$past$arbiter_formal.sv:173$24$0' using process `\arbiter_formal.$proc$arbiter_formal.sv:160$364'.
  created $dff cell `$procdff$4802' with positive edge clock.
Creating register for signal `\arbiter_formal.$past$arbiter_formal.sv:177$25$0' using process `\arbiter_formal.$proc$arbiter_formal.sv:160$364'.
  created $dff cell `$procdff$4803' with positive edge clock.
Creating register for signal `\arbiter_formal.$past$arbiter_formal.sv:177$26$0' using process `\arbiter_formal.$proc$arbiter_formal.sv:160$364'.
  created $dff cell `$procdff$4804' with positive edge clock.
Creating register for signal `\arbiter_formal.$past$arbiter_formal.sv:179$27$0' using process `\arbiter_formal.$proc$arbiter_formal.sv:160$364'.
  created $dff cell `$procdff$4805' with positive edge clock.
Creating register for signal `\arbiter_formal.$past$arbiter_formal.sv:180$28$0' using process `\arbiter_formal.$proc$arbiter_formal.sv:160$364'.
  created $dff cell `$procdff$4806' with positive edge clock.
Creating register for signal `\arbiter_formal.$past$arbiter_formal.sv:163$5$0' using process `\arbiter_formal.$proc$arbiter_formal.sv:160$329'.
  created $dff cell `$procdff$4807' with positive edge clock.
Creating register for signal `\arbiter_formal.$past$arbiter_formal.sv:163$6$0' using process `\arbiter_formal.$proc$arbiter_formal.sv:160$329'.
  created $dff cell `$procdff$4808' with positive edge clock.
Creating register for signal `\arbiter_formal.$past$arbiter_formal.sv:165$7$0' using process `\arbiter_formal.$proc$arbiter_formal.sv:160$329'.
  created $dff cell `$procdff$4809' with positive edge clock.
Creating register for signal `\arbiter_formal.$past$arbiter_formal.sv:166$8$0' using process `\arbiter_formal.$proc$arbiter_formal.sv:160$329'.
  created $dff cell `$procdff$4810' with positive edge clock.
Creating register for signal `\arbiter_formal.$past$arbiter_formal.sv:170$9$0' using process `\arbiter_formal.$proc$arbiter_formal.sv:160$329'.
  created $dff cell `$procdff$4811' with positive edge clock.
Creating register for signal `\arbiter_formal.$past$arbiter_formal.sv:170$10$0' using process `\arbiter_formal.$proc$arbiter_formal.sv:160$329'.
  created $dff cell `$procdff$4812' with positive edge clock.
Creating register for signal `\arbiter_formal.$past$arbiter_formal.sv:172$11$0' using process `\arbiter_formal.$proc$arbiter_formal.sv:160$329'.
  created $dff cell `$procdff$4813' with positive edge clock.
Creating register for signal `\arbiter_formal.$past$arbiter_formal.sv:173$12$0' using process `\arbiter_formal.$proc$arbiter_formal.sv:160$329'.
  created $dff cell `$procdff$4814' with positive edge clock.
Creating register for signal `\arbiter_formal.$past$arbiter_formal.sv:177$13$0' using process `\arbiter_formal.$proc$arbiter_formal.sv:160$329'.
  created $dff cell `$procdff$4815' with positive edge clock.
Creating register for signal `\arbiter_formal.$past$arbiter_formal.sv:177$14$0' using process `\arbiter_formal.$proc$arbiter_formal.sv:160$329'.
  created $dff cell `$procdff$4816' with positive edge clock.
Creating register for signal `\arbiter_formal.$past$arbiter_formal.sv:179$15$0' using process `\arbiter_formal.$proc$arbiter_formal.sv:160$329'.
  created $dff cell `$procdff$4817' with positive edge clock.
Creating register for signal `\arbiter_formal.$past$arbiter_formal.sv:180$16$0' using process `\arbiter_formal.$proc$arbiter_formal.sv:160$329'.
  created $dff cell `$procdff$4818' with positive edge clock.
Creating register for signal `\arbiter_formal.$past$arbiter_formal.sv:316$82$0' using process `\arbiter_formal.$proc$arbiter_formal.sv:313$300'.
  created $dff cell `$procdff$4819' with positive edge clock.
Creating register for signal `\arbiter_formal.$past$arbiter_formal.sv:307$81$0' using process `\arbiter_formal.$proc$arbiter_formal.sv:304$295'.
  created $dff cell `$procdff$4820' with positive edge clock.
Creating register for signal `\arbiter_formal.$past$arbiter_formal.sv:293$79$0' using process `\arbiter_formal.$proc$arbiter_formal.sv:291$286'.
  created $dff cell `$procdff$4821' with positive edge clock.
Creating register for signal `\arbiter_formal.$past$arbiter_formal.sv:294$80$0' using process `\arbiter_formal.$proc$arbiter_formal.sv:291$286'.
  created $dff cell `$procdff$4822' with positive edge clock.
